date Sat Jan 11 21:13:10.140 2025
base hex  timestamps absolute
internal events logged
Begin Triggerblock Sat Jan 11 21:13:10.140 2025
 0.000000 Start of measurement
 0.000000 1  64              Rx   d 8 07 B8 05 00 00 00 00 00
 0.050000 1  C8              Rx   d 4 A1 C2 11 00
 0.100000 1  64              Rx   d 8 F7 D2 06 00 00 00 00 00
 0.150000 1  C8              Rx   d 4 1C 92 0E 00
 0.200000 1  64              Rx   d 8 EA 8B 0C 00 00 00 00 00
 0.250000 1  C8              Rx   d 4 1A D2 0E 00
 0.300000 1  64              Rx   d 8 FE 4F 13 00 00 00 00 00
 0.350000 1  C8              Rx   d 4 9E 25 0F 00
 0.400000 1  64              Rx   d 8 28 74 00 00 00 00 00 00
 0.450000 1  C8              Rx   d 4 AA C4 0B 00
 0.500000 1  64              Rx   d 8 96 FA 1E 00 00 00 00 00
 0.549999 1  C8              Rx   d 4 50 75 15 00
 0.599999 1  64              Rx   d 8 48 DE 1E 00 00 00 00 00
 0.649999 1  C8              Rx   d 4 89 81 03 00
 0.699999 1  64              Rx   d 8 29 03 1A 00 00 00 00 00
 0.749999 1  C8              Rx   d 4 7E A5 15 00
 0.799999 1  64              Rx   d 8 BA E6 17 00 00 00 00 00
 0.849999 1  C8              Rx   d 4 67 FD 09 00
 0.899999 1  64              Rx   d 8 02 53 08 00 00 00 00 00
 0.949999 1  C8              Rx   d 4 3E D7 06 00
 0.999999 1  64              Rx   d 8 59 5D 08 00 00 00 00 00
 1.049999 1  C8              Rx   d 4 15 D5 06 00
 1.099999 1  64              Rx   d 8 E7 CA 02 00 00 00 00 00
 1.149999 1  C8              Rx   d 4 04 94 14 00
 1.199999 1  64              Rx   d 8 45 CF 0C 00 00 00 00 00
 1.249999 1  C8              Rx   d 4 AA D3 15 00
 1.299999 1  64              Rx   d 8 43 4C 08 00 00 00 00 00
 1.349999 1  C8              Rx   d 4 B5 3D 11 00
 1.399999 1  64              Rx   d 8 E6 E5 1D 00 00 00 00 00
 1.449999 1  C8              Rx   d 4 89 78 0D 00
 1.499999 1  64              Rx   d 8 CF 27 0C 00 00 00 00 00
 1.549999 1  C8              Rx   d 4 5D 45 0C 00
 1.599998 1  64              Rx   d 8 ED 3D 1A 00 00 00 00 00
 1.649998 1  C8              Rx   d 4 49 C3 04 00
 1.699998 1  64              Rx   d 8 23 26 01 00 00 00 00 00
 1.749998 1  C8              Rx   d 4 D6 35 0F 00
 1.799998 1  64              Rx   d 8 1E 72 0C 00 00 00 00 00
 1.849998 1  C8              Rx   d 4 12 DA 0E 00
 1.899998 1  64              Rx   d 8 F4 F4 17 00 00 00 00 00
 1.949998 1  C8              Rx   d 4 6A 46 07 00
 1.999998 1  64              Rx   d 8 41 6E 05 00 00 00 00 00
 2.049998 1  C8              Rx   d 4 CF 70 0D 00
 2.099998 1  64              Rx   d 8 6C 14 1A 00 00 00 00 00
 2.149998 1  C8              Rx   d 4 1D EF 0B 00
 2.199998 1  64              Rx   d 8 2C EC 01 00 00 00 00 00
 2.249998 1  C8              Rx   d 4 C9 B5 10 00
 2.299998 1  64              Rx   d 8 3A 11 13 00 00 00 00 00
 2.349998 1  C8              Rx   d 4 74 3B 09 00
 2.399998 1  64              Rx   d 8 DD 51 14 00 00 00 00 00
 2.449998 1  C8              Rx   d 4 78 43 0B 00
 2.499998 1  64              Rx   d 8 1A D5 00 00 00 00 00 00
 2.549998 1  C8              Rx   d 4 76 21 0B 00
 2.599998 1  64              Rx   d 8 14 C3 06 00 00 00 00 00
 2.649997 1  C8              Rx   d 4 A4 3B 17 00
 2.699997 1  64              Rx   d 8 D8 CA 09 00 00 00 00 00
 2.749997 1  C8              Rx   d 4 46 2F 02 00
 2.799997 1  64              Rx   d 8 A5 14 1A 00 00 00 00 00
 2.849997 1  C8              Rx   d 4 3A F0 0F 00
 2.899997 1  64              Rx   d 8 58 F1 08 00 00 00 00 00
 2.949997 1  C8              Rx   d 4 5F BA 11 00
 2.999997 1  64              Rx   d 8 73 87 1B 00 00 00 00 00
 3.049997 1  C8              Rx   d 4 AF 71 0E 00
 3.099997 1  64              Rx   d 8 28 39 15 00 00 00 00 00
 3.149997 1  C8              Rx   d 4 A5 37 06 00
 3.199997 1  64              Rx   d 8 B0 D5 19 00 00 00 00 00
 3.249997 1  C8              Rx   d 4 2E E7 0D 00
 3.299997 1  64              Rx   d 8 8B 31 01 00 00 00 00 00
 3.349997 1  C8              Rx   d 4 69 17 19 00
 3.399997 1  64              Rx   d 8 BE D7 17 00 00 00 00 00
 3.449997 1  C8              Rx   d 4 2B 73 15 00
 3.499997 1  64              Rx   d 8 5E 0F 03 00 00 00 00 00
 3.549997 1  C8              Rx   d 4 0D 95 14 00
 3.599997 1  64              Rx   d 8 3F 79 08 00 00 00 00 00
 3.649997 1  C8              Rx   d 4 D5 D7 0C 00
 3.699996 1  64              Rx   d 8 B6 D0 13 00 00 00 00 00
 3.749996 1  C8              Rx   d 4 22 7A 03 00
 3.799996 1  64              Rx   d 8 58 6D 08 00 00 00 00 00
 3.849996 1  C8              Rx   d 4 1E AB 0F 00
 3.899996 1  64              Rx   d 8 57 AC 18 00 00 00 00 00
 3.949996 1  C8              Rx   d 4 A0 F6 11 00
 3.999996 1  64              Rx   d 8 42 43 05 00 00 00 00 00
 4.049996 1  C8              Rx   d 4 66 0D 03 00
 4.099996 1  64              Rx   d 8 A2 E0 17 00 00 00 00 00
 4.149996 1  C8              Rx   d 4 56 47 0E 00
 4.199996 1  64              Rx   d 8 95 37 05 00 00 00 00 00
 4.249996 1  C8              Rx   d 4 63 25 0A 00
 4.299996 1  64              Rx   d 8 D8 63 0D 00 00 00 00 00
 4.349996 1  C8              Rx   d 4 B6 74 0F 00
 4.399996 1  64              Rx   d 8 C5 BA 10 00 00 00 00 00
 4.449996 1  C8              Rx   d 4 98 27 03 00
 4.499996 1  64              Rx   d 8 BA 86 0D 00 00 00 00 00
 4.549996 1  C8              Rx   d 4 44 17 18 00
 4.599996 1  64              Rx   d 8 CD 7B 14 00 00 00 00 00
 4.649996 1  C8              Rx   d 4 96 8D 04 00
 4.699996 1  64              Rx   d 8 6A 4A 06 00 00 00 00 00
 4.749995 1  C8              Rx   d 4 B4 06 00 00
 4.799995 1  64              Rx   d 8 44 1A 04 00 00 00 00 00
 4.849995 1  C8              Rx   d 4 56 12 0B 00
 4.899995 1  64              Rx   d 8 E2 2E 1A 00 00 00 00 00
 4.949995 1  C8              Rx   d 4 51 5F 07 00
 4.999995 1  64              Rx   d 8 E6 49 12 00 00 00 00 00
 5.049995 1  C8              Rx   d 4 0F 5F 09 00
 5.099995 1  64              Rx   d 8 E5 EE 06 00 00 00 00 00
 5.149995 1  C8              Rx   d 4 32 C9 17 00
 5.199995 1  64              Rx   d 8 1F 3D 15 00 00 00 00 00
 5.249995 1  C8              Rx   d 4 37 0C 12 00
 5.299995 1  64              Rx   d 8 22 53 08 00 00 00 00 00
 5.349995 1  C8              Rx   d 4 D4 A2 05 00
 5.399995 1  64              Rx   d 8 CC 7C 05 00 00 00 00 00
 5.449995 1  C8              Rx   d 4 58 0B 0E 00
 5.499995 1  64              Rx   d 8 23 2A 01 00 00 00 00 00
 5.549995 1  C8              Rx   d 4 6D 68 15 00
 5.599995 1  64              Rx   d 8 F2 86 04 00 00 00 00 00
 5.649995 1  C8              Rx   d 4 D3 E9 08 00
 5.699995 1  64              Rx   d 8 49 4D 16 00 00 00 00 00
 5.749995 1  C8              Rx   d 4 C4 B3 11 00
 5.799994 1  64              Rx   d 8 9C A4 09 00 00 00 00 00
 5.849994 1  C8              Rx   d 4 A2 6D 19 00
 5.899994 1  64              Rx   d 8 5C 45 14 00 00 00 00 00
 5.949994 1  C8              Rx   d 4 6F 7D 0D 00
 5.999994 1  64              Rx   d 8 BA 64 0E 00 00 00 00 00
 6.049994 1  C8              Rx   d 4 A1 8A 07 00
 6.099994 1  64              Rx   d 8 27 76 19 00 00 00 00 00
 6.149994 1  C8              Rx   d 4 2B 2B 0B 00
 6.199994 1  64              Rx   d 8 F6 D4 18 00 00 00 00 00
 6.249994 1  C8              Rx   d 4 B8 86 09 00
 6.299994 1  64              Rx   d 8 C7 91 18 00 00 00 00 00
 6.349994 1  C8              Rx   d 4 4D 93 08 00
 6.399994 1  64              Rx   d 8 F0 F0 00 00 00 00 00 00
 6.449994 1  C8              Rx   d 4 B2 50 0E 00
 6.499994 1  64              Rx   d 8 A6 2A 03 00 00 00 00 00
 6.549994 1  C8              Rx   d 4 A0 E9 0B 00
 6.599994 1  64              Rx   d 8 A9 B1 16 00 00 00 00 00
 6.649994 1  C8              Rx   d 4 B2 D9 01 00
 6.699994 1  64              Rx   d 8 F2 70 0E 00 00 00 00 00
 6.749994 1  C8              Rx   d 4 40 EF 10 00
 6.799994 1  64              Rx   d 8 31 53 0F 00 00 00 00 00
 6.849993 1  C8              Rx   d 4 1E 35 16 00
 6.899993 1  64              Rx   d 8 1E F8 0E 00 00 00 00 00
 6.949993 1  C8              Rx   d 4 63 EC 04 00
 6.999993 1  64              Rx   d 8 15 F4 0B 00 00 00 00 00
 7.049993 1  C8              Rx   d 4 08 63 0A 00
 7.099993 1  64              Rx   d 8 2F 54 08 00 00 00 00 00
 7.149993 1  C8              Rx   d 4 6E E9 0B 00
 7.199993 1  64              Rx   d 8 8F 12 1C 00 00 00 00 00
 7.249993 1  C8              Rx   d 4 54 34 17 00
 7.299993 1  64              Rx   d 8 7A 5F 0B 00 00 00 00 00
 7.349993 1  C8              Rx   d 4 A7 1E 15 00
 7.399993 1  64              Rx   d 8 A4 E4 09 00 00 00 00 00
 7.449993 1  C8              Rx   d 4 B6 4F 06 00
 7.499993 1  64              Rx   d 8 59 1A 00 00 00 00 00 00
 7.549993 1  C8              Rx   d 4 7A 43 00 00
 7.599993 1  64              Rx   d 8 20 32 06 00 00 00 00 00
 7.649993 1  C8              Rx   d 4 10 24 11 00
 7.699993 1  64              Rx   d 8 9B 35 10 00 00 00 00 00
 7.749993 1  C8              Rx   d 4 7D 6C 07 00
 7.799993 1  64              Rx   d 8 31 5A 13 00 00 00 00 00
 7.849993 1  C8              Rx   d 4 36 7D 19 00
 7.899992 1  64              Rx   d 8 4B 62 0C 00 00 00 00 00
 7.949992 1  C8              Rx   d 4 22 EB 03 00
 7.999992 1  64              Rx   d 8 F4 B5 12 00 00 00 00 00
 8.049992 1  C8              Rx   d 4 76 E1 04 00
 8.099992 1  64              Rx   d 8 04 EE 07 00 00 00 00 00
 8.149992 1  C8              Rx   d 4 C4 FF 17 00
 8.199992 1  64              Rx   d 8 50 25 0B 00 00 00 00 00
 8.249992 1  C8              Rx   d 4 1B FC 02 00
 8.299992 1  64              Rx   d 8 F7 93 18 00 00 00 00 00
 8.349992 1  C8              Rx   d 4 A2 0C 18 00
 8.399992 1  64              Rx   d 8 43 E8 16 00 00 00 00 00
 8.449992 1  C8              Rx   d 4 C4 BC 16 00
 8.499992 1  64              Rx   d 8 8E DA 0C 00 00 00 00 00
 8.549992 1  C8              Rx   d 4 B3 1E 18 00
 8.599992 1  64              Rx   d 8 C5 27 0A 00 00 00 00 00
 8.649992 1  C8              Rx   d 4 50 FD 10 00
 8.699992 1  64              Rx   d 8 0C DF 16 00 00 00 00 00
 8.749992 1  C8              Rx   d 4 29 5A 06 00
 8.799992 1  64              Rx   d 8 4E CE 09 00 00 00 00 00
 8.849992 1  C8              Rx   d 4 5A 6A 0A 00
 8.899992 1  64              Rx   d 8 3B A7 00 00 00 00 00 00
 8.949991 1  C8              Rx   d 4 A8 41 08 00
 8.999991 1  64              Rx   d 8 2B A0 0B 00 00 00 00 00
 9.049991 1  C8              Rx   d 4 7B 87 0F 00
 9.099991 1  64              Rx   d 8 AD 7E 08 00 00 00 00 00
 9.149991 1  C8              Rx   d 4 87 4E 01 00
 9.199991 1  64              Rx   d 8 0A 2E 10 00 00 00 00 00
 9.249991 1  C8              Rx   d 4 6F A6 12 00
 9.299991 1  64              Rx   d 8 09 91 10 00 00 00 00 00
 9.349991 1  C8              Rx   d 4 3F E8 00 00
 9.399991 1  64              Rx   d 8 28 D0 0D 00 00 00 00 00
 9.449991 1  C8              Rx   d 4 D6 0B 0A 00
 9.499991 1  64              Rx   d 8 24 49 13 00 00 00 00 00
 9.549991 1  C8              Rx   d 4 86 39 0E 00
 9.599991 1  64              Rx   d 8 3C 62 0D 00 00 00 00 00
 9.649991 1  C8              Rx   d 4 A2 CB 18 00
 9.699991 1  64              Rx   d 8 85 20 1E 00 00 00 00 00
 9.749991 1  C8              Rx   d 4 CA 38 15 00
 9.799991 1  64              Rx   d 8 88 E9 15 00 00 00 00 00
 9.849991 1  C8              Rx   d 4 52 29 0D 00
 9.899991 1  64              Rx   d 8 05 C8 1E 00 00 00 00 00
 9.949991 1  C8              Rx   d 4 5B B4 0E 00
 9.999990 1  64              Rx   d 8 9F A1 1A 00 00 00 00 00
 10.049990 1  C8              Rx   d 4 B2 20 0D 00
 10.099990 1  64              Rx   d 8 91 C5 04 00 00 00 00 00
 10.149990 1  C8              Rx   d 4 AF C2 02 00
 10.199990 1  64              Rx   d 8 16 74 1A 00 00 00 00 00
 10.249990 1  C8              Rx   d 4 14 F6 0E 00
 10.299990 1  64              Rx   d 8 C2 6C 1B 00 00 00 00 00
 10.349990 1  C8              Rx   d 4 C0 30 13 00
 10.399990 1  64              Rx   d 8 99 17 18 00 00 00 00 00
 10.449990 1  C8              Rx   d 4 2A 9E 00 00
 10.499990 1  64              Rx   d 8 78 43 14 00 00 00 00 00
 10.549990 1  C8              Rx   d 4 A9 1A 19 00
 10.599990 1  64              Rx   d 8 C1 51 07 00 00 00 00 00
 10.649990 1  C8              Rx   d 4 2C 97 03 00
 10.699990 1  64              Rx   d 8 09 B4 14 00 00 00 00 00
 10.749990 1  C8              Rx   d 4 85 9F 00 00
 10.799990 1  64              Rx   d 8 B4 63 08 00 00 00 00 00
 10.849990 1  C8              Rx   d 4 45 85 06 00
 10.899990 1  64              Rx   d 8 B6 EC 04 00 00 00 00 00
 10.949990 1  C8              Rx   d 4 62 00 0E 00
 10.999990 1  64              Rx   d 8 59 D7 17 00 00 00 00 00
 11.049989 1  C8              Rx   d 4 02 CF 0F 00
 11.099989 1  64              Rx   d 8 2F BD 12 00 00 00 00 00
 11.149989 1  C8              Rx   d 4 43 1C 14 00
 11.199989 1  64              Rx   d 8 3F 15 01 00 00 00 00 00
 11.249989 1  C8              Rx   d 4 D3 86 00 00
 11.299989 1  64              Rx   d 8 78 A9 19 00 00 00 00 00
 11.349989 1  C8              Rx   d 4 52 61 12 00
 11.399989 1  64              Rx   d 8 CE CD 18 00 00 00 00 00
 11.449989 1  C8              Rx   d 4 C1 6C 02 00
 11.499989 1  64              Rx   d 8 C7 2F 18 00 00 00 00 00
 11.549989 1  C8              Rx   d 4 71 72 00 00
 11.599989 1  64              Rx   d 8 E4 39 12 00 00 00 00 00
 11.649989 1  C8              Rx   d 4 71 97 19 00
 11.699989 1  64              Rx   d 8 5C 20 19 00 00 00 00 00
 11.749989 1  C8              Rx   d 4 8A 27 13 00
 11.799989 1  64              Rx   d 8 33 54 15 00 00 00 00 00
 11.849989 1  C8              Rx   d 4 A6 07 16 00
 11.899989 1  64              Rx   d 8 C0 B8 01 00 00 00 00 00
 11.949989 1  C8              Rx   d 4 A0 DF 03 00
 11.999989 1  64              Rx   d 8 B5 CD 0C 00 00 00 00 00
 12.049989 1  C8              Rx   d 4 04 EB 0F 00
 12.099988 1  64              Rx   d 8 5B 62 16 00 00 00 00 00
 12.149988 1  C8              Rx   d 4 37 45 16 00
 12.199988 1  64              Rx   d 8 A0 49 1C 00 00 00 00 00
 12.249988 1  C8              Rx   d 4 63 75 01 00
 12.299988 1  64              Rx   d 8 1F 19 0D 00 00 00 00 00
 12.349988 1  C8              Rx   d 4 9B 7F 0E 00
 12.399988 1  64              Rx   d 8 71 DA 0E 00 00 00 00 00
 12.449988 1  C8              Rx   d 4 45 18 0E 00
 12.499988 1  64              Rx   d 8 FD 0E 01 00 00 00 00 00
 12.549988 1  C8              Rx   d 4 75 C3 02 00
 12.599988 1  64              Rx   d 8 AE 95 18 00 00 00 00 00
 12.649988 1  C8              Rx   d 4 B8 4F 07 00
 12.699988 1  64              Rx   d 8 8C CE 03 00 00 00 00 00
 12.749988 1  C8              Rx   d 4 59 6B 0D 00
 12.799988 1  64              Rx   d 8 1C 57 03 00 00 00 00 00
 12.849988 1  C8              Rx   d 4 D4 05 09 00
 12.899988 1  64              Rx   d 8 91 EC 15 00 00 00 00 00
 12.949988 1  C8              Rx   d 4 63 96 04 00
 12.999988 1  64              Rx   d 8 A4 27 08 00 00 00 00 00
 13.049988 1  C8              Rx   d 4 88 E6 12 00
 13.099988 1  64              Rx   d 8 8B C5 15 00 00 00 00 00
 13.149987 1  C8              Rx   d 4 B0 C9 0C 00
 13.199987 1  64              Rx   d 8 01 86 03 00 00 00 00 00
 13.249987 1  C8              Rx   d 4 B1 60 08 00
 13.299987 1  64              Rx   d 8 0C 6F 19 00 00 00 00 00
 13.349987 1  C8              Rx   d 4 58 F3 11 00
 13.399987 1  64              Rx   d 8 EA EB 1E 00 00 00 00 00
 13.449987 1  C8              Rx   d 4 8D C5 01 00
 13.499987 1  64              Rx   d 8 67 2B 0D 00 00 00 00 00
 13.549987 1  C8              Rx   d 4 9A C4 0E 00
 13.599987 1  64              Rx   d 8 E4 64 0C 00 00 00 00 00
 13.649987 1  C8              Rx   d 4 05 F5 0B 00
 13.699987 1  64              Rx   d 8 47 3F 0C 00 00 00 00 00
 13.749987 1  C8              Rx   d 4 70 9B 13 00
 13.799987 1  64              Rx   d 8 33 59 12 00 00 00 00 00
 13.849987 1  C8              Rx   d 4 18 FB 06 00
 13.899987 1  64              Rx   d 8 AD C3 17 00 00 00 00 00
 13.949987 1  C8              Rx   d 4 5D 00 10 00
 13.999987 1  64              Rx   d 8 47 E8 16 00 00 00 00 00
 14.049987 1  C8              Rx   d 4 18 08 01 00
 14.099987 1  64              Rx   d 8 74 7A 15 00 00 00 00 00
 14.149987 1  C8              Rx   d 4 A9 0D 0B 00
 14.199986 1  64              Rx   d 8 FB 3A 1F 00 00 00 00 00
 14.249986 1  C8              Rx   d 4 79 9A 15 00
 14.299986 1  64              Rx   d 8 F3 1D 09 00 00 00 00 00
 14.349986 1  C8              Rx   d 4 B5 A1 17 00
 14.399986 1  64              Rx   d 8 EC 8B 1A 00 00 00 00 00
 14.449986 1  C8              Rx   d 4 86 66 0F 00
 14.499986 1  64              Rx   d 8 50 15 1C 00 00 00 00 00
 14.549986 1  C8              Rx   d 4 AA 5E 16 00
 14.599986 1  64              Rx   d 8 DB 88 09 00 00 00 00 00
 14.649986 1  C8              Rx   d 4 9B 0C 12 00
 14.699986 1  64              Rx   d 8 B8 1B 0B 00 00 00 00 00
 14.749986 1  C8              Rx   d 4 10 06 18 00
 14.799986 1  64              Rx   d 8 48 58 0A 00 00 00 00 00
 14.849986 1  C8              Rx   d 4 09 46 10 00
 14.899986 1  64              Rx   d 8 82 52 02 00 00 00 00 00
 14.949986 1  C8              Rx   d 4 C4 0E 06 00
 14.999986 1  64              Rx   d 8 76 6D 0B 00 00 00 00 00
 15.049986 1  C8              Rx   d 4 BC AB 17 00
 15.099986 1  64              Rx   d 8 A8 D6 03 00 00 00 00 00
 15.149986 1  C8              Rx   d 4 D6 04 05 00
 15.199986 1  64              Rx   d 8 4A 40 05 00 00 00 00 00
 15.249985 1  C8              Rx   d 4 43 2F 00 00
 15.299985 1  64              Rx   d 8 1A A8 19 00 00 00 00 00
 15.349985 1  C8              Rx   d 4 1B F7 10 00
 15.399985 1  64              Rx   d 8 07 A4 14 00 00 00 00 00
 15.449985 1  C8              Rx   d 4 42 A4 00 00
 15.499985 1  64              Rx   d 8 E1 10 0D 00 00 00 00 00
 15.549985 1  C8              Rx   d 4 65 E8 08 00
 15.599985 1  64              Rx   d 8 1E 0B 04 00 00 00 00 00
 15.649985 1  C8              Rx   d 4 B5 71 11 00
 15.699985 1  64              Rx   d 8 91 C5 0A 00 00 00 00 00
 15.749985 1  C8              Rx   d 4 83 6B 0E 00
 15.799985 1  64              Rx   d 8 21 1F 14 00 00 00 00 00
 15.849985 1  C8              Rx   d 4 02 C7 0F 00
 15.899985 1  64              Rx   d 8 01 38 10 00 00 00 00 00
 15.949985 1  C8              Rx   d 4 6D 88 0D 00
 15.999985 1  64              Rx   d 8 EB 37 07 00 00 00 00 00
 16.049985 1  C8              Rx   d 4 58 FD 08 00
 16.099985 1  64              Rx   d 8 95 DF 02 00 00 00 00 00
 16.149985 1  C8              Rx   d 4 38 28 16 00
 16.199985 1  64              Rx   d 8 EA 28 00 00 00 00 00 00
 16.249985 1  C8              Rx   d 4 01 B3 08 00
 16.299984 1  64              Rx   d 8 E1 42 11 00 00 00 00 00
 16.349984 1  C8              Rx   d 4 2F 17 07 00
 16.399984 1  64              Rx   d 8 D8 77 01 00 00 00 00 00
 16.449984 1  C8              Rx   d 4 5A 19 10 00
 16.499984 1  64              Rx   d 8 92 1B 03 00 00 00 00 00
 16.549984 1  C8              Rx   d 4 42 49 06 00
 16.599984 1  64              Rx   d 8 A9 97 11 00 00 00 00 00
 16.649984 1  C8              Rx   d 4 B0 AA 10 00
 16.699984 1  64              Rx   d 8 65 A1 1C 00 00 00 00 00
 16.749984 1  C8              Rx   d 4 09 0F 19 00
 16.799984 1  64              Rx   d 8 FD F8 0E 00 00 00 00 00
 16.849984 1  C8              Rx   d 4 CF 54 05 00
 16.899984 1  64              Rx   d 8 F1 33 0F 00 00 00 00 00
 16.949984 1  C8              Rx   d 4 70 DC 14 00
 16.999984 1  64              Rx   d 8 04 5E 10 00 00 00 00 00
 17.049984 1  C8              Rx   d 4 99 52 19 00
 17.099984 1  64              Rx   d 8 7C 0F 09 00 00 00 00 00
 17.149984 1  C8              Rx   d 4 8E FE 14 00
 17.199984 1  64              Rx   d 8 AA 6F 15 00 00 00 00 00
 17.249984 1  C8              Rx   d 4 C4 F8 13 00
 17.299984 1  64              Rx   d 8 55 55 0E 00 00 00 00 00
 17.349983 1  C8              Rx   d 4 5C 7D 19 00
 17.399983 1  64              Rx   d 8 F8 42 0F 00 00 00 00 00
 17.449983 1  C8              Rx   d 4 62 CE 12 00
 17.499983 1  64              Rx   d 8 8A 72 14 00 00 00 00 00
 17.549983 1  C8              Rx   d 4 80 69 08 00
 17.599983 1  64              Rx   d 8 11 95 04 00 00 00 00 00
 17.649983 1  C8              Rx   d 4 81 9B 01 00
 17.699983 1  64              Rx   d 8 56 F2 16 00 00 00 00 00
 17.749983 1  C8              Rx   d 4 BF 41 00 00
 17.799983 1  64              Rx   d 8 43 5B 14 00 00 00 00 00
 17.849983 1  C8              Rx   d 4 27 AF 03 00
 17.899983 1  64              Rx   d 8 66 27 0F 00 00 00 00 00
 17.949983 1  C8              Rx   d 4 1A 0D 0D 00
 17.999983 1  64              Rx   d 8 8A 1F 1F 00 00 00 00 00
 18.049983 1  C8              Rx   d 4 AC 9C 18 00
 18.099983 1  64              Rx   d 8 8E 42 0B 00 00 00 00 00
 18.149983 1  C8              Rx   d 4 9E 29 09 00
 18.199983 1  64              Rx   d 8 43 E1 06 00 00 00 00 00
 18.249983 1  C8              Rx   d 4 D3 0B 16 00
 18.299983 1  64              Rx   d 8 97 41 13 00 00 00 00 00
 18.349983 1  C8              Rx   d 4 9E AA 0C 00
 18.399982 1  64              Rx   d 8 0A E5 02 00 00 00 00 00
 18.449982 1  C8              Rx   d 4 45 37 00 00
 18.499982 1  64              Rx   d 8 6B 9D 11 00 00 00 00 00
 18.549982 1  C8              Rx   d 4 96 5D 12 00
 18.599982 1  64              Rx   d 8 42 31 09 00 00 00 00 00
 18.649982 1  C8              Rx   d 4 31 E8 13 00
 18.699982 1  64              Rx   d 8 1D 1E 10 00 00 00 00 00
 18.749982 1  C8              Rx   d 4 1C D7 10 00
 18.799982 1  64              Rx   d 8 19 59 10 00 00 00 00 00
 18.849982 1  C8              Rx   d 4 C0 FA 05 00
 18.899982 1  64              Rx   d 8 62 50 17 00 00 00 00 00
 18.949982 1  C8              Rx   d 4 47 DF 07 00
 18.999982 1  64              Rx   d 8 07 58 00 00 00 00 00 00
 19.049982 1  C8              Rx   d 4 0B 00 11 00
 19.099982 1  64              Rx   d 8 4F EA 0B 00 00 00 00 00
 19.149982 1  C8              Rx   d 4 68 DB 0B 00
 19.199982 1  64              Rx   d 8 0D 5A 16 00 00 00 00 00
 19.249982 1  C8              Rx   d 4 5C 0E 18 00
 19.299982 1  64              Rx   d 8 D8 BB 11 00 00 00 00 00
 19.349982 1  C8              Rx   d 4 0A C0 08 00
 19.399981 1  64              Rx   d 8 7D 18 0A 00 00 00 00 00
 19.449981 1  C8              Rx   d 4 43 16 00 00
 19.499981 1  64              Rx   d 8 CA E0 1E 00 00 00 00 00
 19.549981 1  C8              Rx   d 4 94 F3 15 00
 19.599981 1  64              Rx   d 8 95 ED 10 00 00 00 00 00
 19.649981 1  C8              Rx   d 4 3B C6 0C 00
 19.699981 1  64              Rx   d 8 87 6B 0E 00 00 00 00 00
 19.749981 1  C8              Rx   d 4 74 60 13 00
 19.799981 1  64              Rx   d 8 E0 5B 13 00 00 00 00 00
 19.849981 1  C8              Rx   d 4 D3 C5 0A 00
 19.899981 1  64              Rx   d 8 3D A7 16 00 00 00 00 00
 19.949981 1  C8              Rx   d 4 06 23 11 00
 19.999981 1  64              Rx   d 8 D4 1A 18 00 00 00 00 00
 20.049981 1  C8              Rx   d 4 A8 D1 0A 00
 20.099981 1  64              Rx   d 8 3B 65 13 00 00 00 00 00
 20.149981 1  C8              Rx   d 4 0F A7 16 00
 20.199981 1  64              Rx   d 8 49 39 0F 00 00 00 00 00
 20.249981 1  C8              Rx   d 4 0F A1 0E 00
 20.299981 1  64              Rx   d 8 4D 9E 10 00 00 00 00 00
 20.349981 1  C8              Rx   d 4 11 8E 0E 00
 20.399981 1  64              Rx   d 8 F9 C6 0B 00 00 00 00 00
 20.449980 1  C8              Rx   d 4 64 91 07 00
 20.499980 1  64              Rx   d 8 13 C5 01 00 00 00 00 00
 20.549980 1  C8              Rx   d 4 7F 87 0A 00
 20.599980 1  64              Rx   d 8 08 29 19 00 00 00 00 00
 20.649980 1  C8              Rx   d 4 CA 58 08 00
 20.699980 1  64              Rx   d 8 88 8A 0E 00 00 00 00 00
 20.749980 1  C8              Rx   d 4 49 14 01 00
 20.799980 1  64              Rx   d 8 0D 41 06 00 00 00 00 00
 20.849980 1  C8              Rx   d 4 94 D0 16 00
 20.899980 1  64              Rx   d 8 B1 A1 02 00 00 00 00 00
 20.949980 1  C8              Rx   d 4 62 4E 16 00
 20.999980 1  64              Rx   d 8 EB A9 06 00 00 00 00 00
 21.049980 1  C8              Rx   d 4 87 4E 06 00
 21.099980 1  64              Rx   d 8 D8 97 15 00 00 00 00 00
 21.149980 1  C8              Rx   d 4 80 9C 08 00
 21.199980 1  64              Rx   d 8 FE 72 02 00 00 00 00 00
 21.249980 1  C8              Rx   d 4 4C 5D 05 00
 21.299980 1  64              Rx   d 8 49 B0 10 00 00 00 00 00
 21.349980 1  C8              Rx   d 4 8D 70 07 00
 21.399980 1  64              Rx   d 8 41 83 18 00 00 00 00 00
 21.449980 1  C8              Rx   d 4 BF 26 11 00
 21.499979 1  64              Rx   d 8 6D 51 0B 00 00 00 00 00
 21.549979 1  C8              Rx   d 4 B9 B4 02 00
 21.599979 1  64              Rx   d 8 5A 32 0F 00 00 00 00 00
 21.649979 1  C8              Rx   d 4 11 22 15 00
 21.699979 1  64              Rx   d 8 11 C3 0B 00 00 00 00 00
 21.749979 1  C8              Rx   d 4 18 B9 01 00
 21.799979 1  64              Rx   d 8 B1 8C 16 00 00 00 00 00
 21.849979 1  C8              Rx   d 4 94 73 06 00
 21.899979 1  64              Rx   d 8 F9 3C 13 00 00 00 00 00
 21.949979 1  C8              Rx   d 4 98 37 05 00
 21.999979 1  64              Rx   d 8 B4 FE 1B 00 00 00 00 00
 22.049979 1  C8              Rx   d 4 2C 26 08 00
 22.099979 1  64              Rx   d 8 F1 C6 00 00 00 00 00 00
 22.149979 1  C8              Rx   d 4 B6 9A 03 00
 22.199979 1  64              Rx   d 8 2F 4B 07 00 00 00 00 00
 22.249979 1  C8              Rx   d 4 15 53 15 00
 22.299979 1  64              Rx   d 8 B6 B5 15 00 00 00 00 00
 22.349979 1  C8              Rx   d 4 D2 5B 0A 00
 22.399979 1  64              Rx   d 8 D6 48 10 00 00 00 00 00
 22.449979 1  C8              Rx   d 4 77 66 0E 00
 22.499979 1  64              Rx   d 8 32 4C 0E 00 00 00 00 00
 22.549978 1  C8              Rx   d 4 BD C1 18 00
 22.599978 1  64              Rx   d 8 DF 88 18 00 00 00 00 00
 22.649978 1  C8              Rx   d 4 83 1F 02 00
 22.699978 1  64              Rx   d 8 95 01 01 00 00 00 00 00
 22.749978 1  C8              Rx   d 4 AA A5 14 00
 22.799978 1  64              Rx   d 8 AC 82 05 00 00 00 00 00
 22.849978 1  C8              Rx   d 4 72 88 08 00
 22.899978 1  64              Rx   d 8 CB 05 19 00 00 00 00 00
 22.949978 1  C8              Rx   d 4 36 F4 0F 00
 22.999978 1  64              Rx   d 8 42 C1 1A 00 00 00 00 00
 23.049978 1  C8              Rx   d 4 44 EF 0E 00
 23.099978 1  64              Rx   d 8 69 B2 09 00 00 00 00 00
 23.149978 1  C8              Rx   d 4 04 86 06 00
 23.199978 1  64              Rx   d 8 EB 6E 1D 00 00 00 00 00
 23.249978 1  C8              Rx   d 4 CE A5 03 00
 23.299978 1  64              Rx   d 8 FE 9A 1B 00 00 00 00 00
 23.349978 1  C8              Rx   d 4 01 13 02 00
 23.399978 1  64              Rx   d 8 48 B3 0D 00 00 00 00 00
 23.449978 1  C8              Rx   d 4 AF 82 03 00
 23.499978 1  64              Rx   d 8 E5 41 0B 00 00 00 00 00
 23.549978 1  C8              Rx   d 4 8E C4 13 00
 23.599977 1  64              Rx   d 8 A5 D4 00 00 00 00 00 00
 23.649977 1  C8              Rx   d 4 91 89 11 00
 23.699977 1  64              Rx   d 8 74 03 1D 00 00 00 00 00
 23.749977 1  C8              Rx   d 4 80 3B 15 00
 23.799977 1  64              Rx   d 8 BD BB 01 00 00 00 00 00
 23.849977 1  C8              Rx   d 4 8C 73 05 00
 23.899977 1  64              Rx   d 8 23 DF 02 00 00 00 00 00
 23.949977 1  C8              Rx   d 4 CF 36 04 00
 23.999977 1  64              Rx   d 8 EC E5 0D 00 00 00 00 00
 24.049977 1  C8              Rx   d 4 A6 07 01 00
 24.099977 1  64              Rx   d 8 E0 8C 14 00 00 00 00 00
 24.149977 1  C8              Rx   d 4 86 F1 11 00
 24.199977 1  64              Rx   d 8 47 D7 07 00 00 00 00 00
 24.249977 1  C8              Rx   d 4 65 5C 11 00
 24.299977 1  64              Rx   d 8 7B 2E 17 00 00 00 00 00
 24.349977 1  C8              Rx   d 4 03 81 09 00
 24.399977 1  64              Rx   d 8 4F 24 06 00 00 00 00 00
 24.449977 1  C8              Rx   d 4 AB EF 17 00
 24.499977 1  64              Rx   d 8 42 94 03 00 00 00 00 00
 24.549977 1  C8              Rx   d 4 60 D7 05 00
 24.599977 1  64              Rx   d 8 96 E2 1A 00 00 00 00 00
 24.649976 1  C8              Rx   d 4 71 E1 14 00
 24.699976 1  64              Rx   d 8 47 6D 1D 00 00 00 00 00
 24.749976 1  C8              Rx   d 4 7F AF 08 00
 24.799976 1  64              Rx   d 8 BA 24 18 00 00 00 00 00
 24.849976 1  C8              Rx   d 4 CD 88 05 00
 24.899976 1  64              Rx   d 8 82 91 04 00 00 00 00 00
 24.949976 1  C8              Rx   d 4 A5 59 0C 00
 24.999976 1  64              Rx   d 8 82 2A 06 00 00 00 00 00
 25.049976 1  C8              Rx   d 4 B6 3E 12 00
 25.099976 1  64              Rx   d 8 8E 4B 02 00 00 00 00 00
 25.149976 1  C8              Rx   d 4 D7 6C 08 00
 25.199976 1  64              Rx   d 8 8A 71 12 00 00 00 00 00
 25.249976 1  C8              Rx   d 4 46 28 08 00
 25.299976 1  64              Rx   d 8 23 96 0A 00 00 00 00 00
 25.349976 1  C8              Rx   d 4 D0 61 14 00
 25.399976 1  64              Rx   d 8 BA 87 00 00 00 00 00 00
 25.449976 1  C8              Rx   d 4 A9 46 12 00
 25.499976 1  64              Rx   d 8 91 01 0B 00 00 00 00 00
 25.549976 1  C8              Rx   d 4 64 76 09 00
 25.599976 1  64              Rx   d 8 1A B6 09 00 00 00 00 00
 25.649976 1  C8              Rx   d 4 09 19 18 00
 25.699975 1  64              Rx   d 8 2D 7A 13 00 00 00 00 00
 25.749975 1  C8              Rx   d 4 B3 2B 08 00
 25.799975 1  64              Rx   d 8 DC 2A 04 00 00 00 00 00
 25.849975 1  C8              Rx   d 4 96 47 0C 00
 25.899975 1  64              Rx   d 8 6E 00 1C 00 00 00 00 00
 25.949975 1  C8              Rx   d 4 B7 6D 19 00
 25.999975 1  64              Rx   d 8 97 DF 1A 00 00 00 00 00
 26.049975 1  C8              Rx   d 4 28 1F 19 00
 26.099975 1  64              Rx   d 8 78 A9 00 00 00 00 00 00
 26.149975 1  C8              Rx   d 4 4B 59 15 00
 26.199975 1  64              Rx   d 8 03 3C 18 00 00 00 00 00
 26.249975 1  C8              Rx   d 4 14 FA 0A 00
 26.299975 1  64              Rx   d 8 15 0C 15 00 00 00 00 00
 26.349975 1  C8              Rx   d 4 2A AD 0E 00
 26.399975 1  64              Rx   d 8 50 FE 10 00 00 00 00 00
 26.449975 1  C8              Rx   d 4 34 42 05 00
 26.499975 1  64              Rx   d 8 E8 7C 1C 00 00 00 00 00
 26.549975 1  C8              Rx   d 4 B1 07 17 00
 26.599975 1  64              Rx   d 8 1B E9 03 00 00 00 00 00
 26.649975 1  C8              Rx   d 4 32 59 06 00
 26.699975 1  64              Rx   d 8 C0 54 07 00 00 00 00 00
 26.749974 1  C8              Rx   d 4 23 E8 0E 00
 26.799974 1  64              Rx   d 8 A4 82 11 00 00 00 00 00
 26.849974 1  C8              Rx   d 4 BE D7 05 00
 26.899974 1  64              Rx   d 8 E5 8C 10 00 00 00 00 00
 26.949974 1  C8              Rx   d 4 08 7D 10 00
 26.999974 1  64              Rx   d 8 0F DF 09 00 00 00 00 00
 27.049974 1  C8              Rx   d 4 3C BC 02 00
 27.099974 1  64              Rx   d 8 0E 7B 0B 00 00 00 00 00
 27.149974 1  C8              Rx   d 4 39 AC 06 00
 27.199974 1  64              Rx   d 8 53 D8 1D 00 00 00 00 00
 27.249974 1  C8              Rx   d 4 7F 48 0D 00
 27.299974 1  64              Rx   d 8 52 5D 05 00 00 00 00 00
 27.349974 1  C8              Rx   d 4 AA A7 0A 00
 27.399974 1  64              Rx   d 8 3E 0C 14 00 00 00 00 00
 27.449974 1  C8              Rx   d 4 CE 47 15 00
 27.499974 1  64              Rx   d 8 53 99 0F 00 00 00 00 00
 27.549974 1  C8              Rx   d 4 90 EF 11 00
 27.599974 1  64              Rx   d 8 D4 77 08 00 00 00 00 00
 27.649974 1  C8              Rx   d 4 2F 95 10 00
 27.699974 1  64              Rx   d 8 08 67 01 00 00 00 00 00
 27.749974 1  C8              Rx   d 4 C3 A8 08 00
 27.799973 1  64              Rx   d 8 61 F5 0A 00 00 00 00 00
 27.849973 1  C8              Rx   d 4 54 D8 0B 00
 27.899973 1  64              Rx   d 8 B2 AA 15 00 00 00 00 00
 27.949973 1  C8              Rx   d 4 CA 47 07 00
 27.999973 1  64              Rx   d 8 B6 41 05 00 00 00 00 00
 28.049973 1  C8              Rx   d 4 72 29 17 00
 28.099973 1  64              Rx   d 8 58 A3 07 00 00 00 00 00
 28.149973 1  C8              Rx   d 4 5A 98 0C 00
 28.199973 1  64              Rx   d 8 F5 B2 10 00 00 00 00 00
 28.249973 1  C8              Rx   d 4 52 51 02 00
 28.299973 1  64              Rx   d 8 99 69 04 00 00 00 00 00
 28.349973 1  C8              Rx   d 4 13 1F 05 00
 28.399973 1  64              Rx   d 8 25 A9 02 00 00 00 00 00
 28.449973 1  C8              Rx   d 4 BC 36 0B 00
 28.499973 1  64              Rx   d 8 81 9D 05 00 00 00 00 00
 28.549973 1  C8              Rx   d 4 98 61 07 00
 28.599973 1  64              Rx   d 8 66 34 06 00 00 00 00 00
 28.649973 1  C8              Rx   d 4 8E 7F 0F 00
 28.699973 1  64              Rx   d 8 97 FF 0B 00 00 00 00 00
 28.749973 1  C8              Rx   d 4 3E 66 06 00
 28.799973 1  64              Rx   d 8 FE 9F 08 00 00 00 00 00
 28.849972 1  C8              Rx   d 4 97 41 18 00
 28.899972 1  64              Rx   d 8 94 2D 1F 00 00 00 00 00
 28.949972 1  C8              Rx   d 4 A1 43 02 00
 28.999972 1  64              Rx   d 8 3E 52 11 00 00 00 00 00
 29.049972 1  C8              Rx   d 4 97 AE 0B 00
 29.099972 1  64              Rx   d 8 55 C8 10 00 00 00 00 00
 29.149972 1  C8              Rx   d 4 CA F9 18 00
 29.199972 1  64              Rx   d 8 D2 16 0F 00 00 00 00 00
 29.249972 1  C8              Rx   d 4 52 B3 0C 00
 29.299972 1  64              Rx   d 8 C5 3A 16 00 00 00 00 00
 29.349972 1  C8              Rx   d 4 69 0E 19 00
 29.399972 1  64              Rx   d 8 0B D3 12 00 00 00 00 00
 29.449972 1  C8              Rx   d 4 5F B5 08 00
 29.499972 1  64              Rx   d 8 D9 CE 10 00 00 00 00 00
 29.549972 1  C8              Rx   d 4 08 90 15 00
 29.599972 1  64              Rx   d 8 BA 07 11 00 00 00 00 00
 29.649972 1  C8              Rx   d 4 71 90 01 00
 29.699972 1  64              Rx   d 8 E1 B0 11 00 00 00 00 00
 29.749972 1  C8              Rx   d 4 39 30 11 00
 29.799972 1  64              Rx   d 8 90 04 0D 00 00 00 00 00
 29.849972 1  C8              Rx   d 4 A9 32 15 00
 29.899971 1  64              Rx   d 8 29 DB 18 00 00 00 00 00
 29.949971 1  C8              Rx   d 4 8E 88 0B 00
 29.999971 1  64              Rx   d 8 8D 94 05 00 00 00 00 00
 30.049971 1  C8              Rx   d 4 C8 3D 15 00
 30.099971 1  64              Rx   d 8 CD 7D 07 00 00 00 00 00
 30.149971 1  C8              Rx   d 4 73 1D 17 00
 30.199971 1  64              Rx   d 8 98 1F 1D 00 00 00 00 00
 30.249971 1  C8              Rx   d 4 89 37 19 00
 30.299971 1  64              Rx   d 8 C4 49 09 00 00 00 00 00
 30.349971 1  C8              Rx   d 4 9A 51 19 00
 30.399971 1  64              Rx   d 8 A1 A3 15 00 00 00 00 00
 30.449971 1  C8              Rx   d 4 29 AA 12 00
 30.499971 1  64              Rx   d 8 1E 69 00 00 00 00 00 00
 30.549971 1  C8              Rx   d 4 4B 10 03 00
 30.599971 1  64              Rx   d 8 88 B8 04 00 00 00 00 00
 30.649971 1  C8              Rx   d 4 CA E7 11 00
 30.699971 1  64              Rx   d 8 41 A8 15 00 00 00 00 00
 30.749971 1  C8              Rx   d 4 33 9D 14 00
 30.799971 1  64              Rx   d 8 DE BF 1D 00 00 00 00 00
 30.849971 1  C8              Rx   d 4 9C 91 0E 00
 30.899971 1  64              Rx   d 8 8C C6 1C 00 00 00 00 00
 30.949970 1  C8              Rx   d 4 3D AA 0E 00
 30.999970 1  64              Rx   d 8 AC E2 15 00 00 00 00 00
 31.049970 1  C8              Rx   d 4 BC 7A 0A 00
 31.099970 1  64              Rx   d 8 38 04 0E 00 00 00 00 00
 31.149970 1  C8              Rx   d 4 D6 3E 04 00
 31.199970 1  64              Rx   d 8 E5 00 14 00 00 00 00 00
 31.249970 1  C8              Rx   d 4 D7 24 18 00
 31.299970 1  64              Rx   d 8 14 F1 1B 00 00 00 00 00
 31.349970 1  C8              Rx   d 4 8F 74 09 00
 31.399970 1  64              Rx   d 8 AD 9D 0D 00 00 00 00 00
 31.449970 1  C8              Rx   d 4 3D BB 12 00
 31.499970 1  64              Rx   d 8 15 88 19 00 00 00 00 00
 31.549970 1  C8              Rx   d 4 53 DF 10 00
 31.599970 1  64              Rx   d 8 45 B9 0B 00 00 00 00 00
 31.649970 1  C8              Rx   d 4 67 EB 00 00
 31.699970 1  64              Rx   d 8 5A 43 1B 00 00 00 00 00
 31.749970 1  C8              Rx   d 4 9E DF 11 00
 31.799970 1  64              Rx   d 8 DB B0 13 00 00 00 00 00
 31.849970 1  C8              Rx   d 4 5D 06 00 00
 31.899970 1  64              Rx   d 8 A3 C1 18 00 00 00 00 00
 31.949970 1  C8              Rx   d 4 66 8F 10 00
 31.999969 1  64              Rx   d 8 E4 EB 19 00 00 00 00 00
 32.049969 1  C8              Rx   d 4 C3 B2 06 00
 32.099969 1  64              Rx   d 8 1D 50 10 00 00 00 00 00
 32.149969 1  C8              Rx   d 4 C0 77 07 00
 32.199969 1  64              Rx   d 8 4F 7A 16 00 00 00 00 00
 32.249969 1  C8              Rx   d 4 0C D0 04 00
 32.299969 1  64              Rx   d 8 DC D7 0A 00 00 00 00 00
 32.349969 1  C8              Rx   d 4 57 37 04 00
 32.399969 1  64              Rx   d 8 D6 E3 14 00 00 00 00 00
 32.449969 1  C8              Rx   d 4 06 F9 17 00
 32.499969 1  64              Rx   d 8 AF AB 00 00 00 00 00 00
 32.549969 1  C8              Rx   d 4 3C D1 01 00
 32.599969 1  64              Rx   d 8 BC 95 11 00 00 00 00 00
 32.649969 1  C8              Rx   d 4 5E 18 0F 00
 32.699969 1  64              Rx   d 8 AE 76 1B 00 00 00 00 00
 32.749969 1  C8              Rx   d 4 9D B4 00 00
 32.799969 1  64              Rx   d 8 6F F8 12 00 00 00 00 00
 32.849969 1  C8              Rx   d 4 9E 26 09 00
 32.899969 1  64              Rx   d 8 4A 67 0E 00 00 00 00 00
 32.949969 1  C8              Rx   d 4 82 6D 0A 00
 32.999969 1  64              Rx   d 8 7D 77 03 00 00 00 00 00
 33.049968 1  C8              Rx   d 4 01 69 17 00
 33.099968 1  64              Rx   d 8 91 18 10 00 00 00 00 00
 33.149968 1  C8              Rx   d 4 8C 8E 03 00
 33.199968 1  64              Rx   d 8 7E 81 18 00 00 00 00 00
 33.249968 1  C8              Rx   d 4 6E D8 16 00
 33.299968 1  64              Rx   d 8 23 59 01 00 00 00 00 00
 33.349968 1  C8              Rx   d 4 B9 AC 09 00
 33.399968 1  64              Rx   d 8 E1 32 0A 00 00 00 00 00
 33.449968 1  C8              Rx   d 4 B6 E5 0B 00
 33.499968 1  64              Rx   d 8 61 87 0C 00 00 00 00 00
 33.549968 1  C8              Rx   d 4 A5 D4 17 00
 33.599968 1  64              Rx   d 8 CA 88 0F 00 00 00 00 00
 33.649968 1  C8              Rx   d 4 8B FC 0F 00
 33.699968 1  64              Rx   d 8 8E 85 17 00 00 00 00 00
 33.749968 1  C8              Rx   d 4 8D 18 15 00
 33.799968 1  64              Rx   d 8 F7 2F 11 00 00 00 00 00
 33.849968 1  C8              Rx   d 4 6A 9C 10 00
 33.899968 1  64              Rx   d 8 87 07 1A 00 00 00 00 00
 33.949968 1  C8              Rx   d 4 12 97 06 00
 33.999968 1  64              Rx   d 8 32 24 13 00 00 00 00 00
 34.049968 1  C8              Rx   d 4 D3 5E 11 00
 34.099967 1  64              Rx   d 8 2B 02 05 00 00 00 00 00
 34.149967 1  C8              Rx   d 4 9F 99 13 00
 34.199967 1  64              Rx   d 8 F3 71 06 00 00 00 00 00
 34.249967 1  C8              Rx   d 4 D6 FC 10 00
 34.299967 1  64              Rx   d 8 BB 1E 03 00 00 00 00 00
 34.349967 1  C8              Rx   d 4 A6 BC 0C 00
 34.399967 1  64              Rx   d 8 A3 AA 05 00 00 00 00 00
 34.449967 1  C8              Rx   d 4 D4 5F 0C 00
 34.499967 1  64              Rx   d 8 6C 9A 1C 00 00 00 00 00
 34.549967 1  C8              Rx   d 4 BD 32 0D 00
 34.599967 1  64              Rx   d 8 22 17 0D 00 00 00 00 00
 34.649967 1  C8              Rx   d 4 36 AE 13 00
 34.699967 1  64              Rx   d 8 87 FE 15 00 00 00 00 00
 34.749967 1  C8              Rx   d 4 CE A8 16 00
 34.799967 1  64              Rx   d 8 17 63 13 00 00 00 00 00
 34.849967 1  C8              Rx   d 4 BD F7 17 00
 34.899967 1  64              Rx   d 8 EB 7C 04 00 00 00 00 00
 34.949967 1  C8              Rx   d 4 6A DC 10 00
 34.999967 1  64              Rx   d 8 BA BB 07 00 00 00 00 00
 35.049967 1  C8              Rx   d 4 B3 9D 0C 00
 35.099967 1  64              Rx   d 8 FF D8 0D 00 00 00 00 00
 35.149966 1  C8              Rx   d 4 C7 F4 12 00
 35.199966 1  64              Rx   d 8 0E E5 19 00 00 00 00 00
 35.249966 1  C8              Rx   d 4 74 48 0A 00
 35.299966 1  64              Rx   d 8 5D B0 0A 00 00 00 00 00
 35.349966 1  C8              Rx   d 4 B0 C3 13 00
 35.399966 1  64              Rx   d 8 54 DD 02 00 00 00 00 00
 35.449966 1  C8              Rx   d 4 36 5A 18 00
 35.499966 1  64              Rx   d 8 6E A3 1D 00 00 00 00 00
 35.549966 1  C8              Rx   d 4 B4 54 16 00
 35.599966 1  64              Rx   d 8 4F 7C 06 00 00 00 00 00
 35.649966 1  C8              Rx   d 4 24 8F 12 00
 35.699966 1  64              Rx   d 8 29 E9 02 00 00 00 00 00
 35.749966 1  C8              Rx   d 4 C1 50 0E 00
 35.799966 1  64              Rx   d 8 6E 04 0F 00 00 00 00 00
 35.849966 1  C8              Rx   d 4 64 4A 15 00
 35.899966 1  64              Rx   d 8 72 82 00 00 00 00 00 00
 35.949966 1  C8              Rx   d 4 04 11 01 00
 35.999966 1  64              Rx   d 8 9C 17 0E 00 00 00 00 00
 36.049966 1  C8              Rx   d 4 6F 67 0E 00
 36.099966 1  64              Rx   d 8 FD 3A 0B 00 00 00 00 00
 36.149966 1  C8              Rx   d 4 35 71 05 00
 36.199965 1  64              Rx   d 8 71 1B 1E 00 00 00 00 00
 36.249965 1  C8              Rx   d 4 C4 17 17 00
 36.299965 1  64              Rx   d 8 98 D1 17 00 00 00 00 00
 36.349965 1  C8              Rx   d 4 AE 19 00 00
 36.399965 1  64              Rx   d 8 27 3D 18 00 00 00 00 00
 36.449965 1  C8              Rx   d 4 9D 63 15 00
 36.499965 1  64              Rx   d 8 C8 C8 02 00 00 00 00 00
 36.549965 1  C8              Rx   d 4 99 B5 0F 00
 36.599965 1  64              Rx   d 8 41 62 0F 00 00 00 00 00
 36.649965 1  C8              Rx   d 4 D6 7D 05 00
 36.699965 1  64              Rx   d 8 02 B0 0C 00 00 00 00 00
 36.749965 1  C8              Rx   d 4 52 6F 04 00
 36.799965 1  64              Rx   d 8 74 CA 00 00 00 00 00 00
 36.849965 1  C8              Rx   d 4 4B FF 0A 00
 36.899965 1  64              Rx   d 8 8C E4 04 00 00 00 00 00
 36.949965 1  C8              Rx   d 4 B2 4C 00 00
 36.999965 1  64              Rx   d 8 0F DD 0E 00 00 00 00 00
 37.049965 1  C8              Rx   d 4 C8 03 19 00
 37.099965 1  64              Rx   d 8 A9 1A 0E 00 00 00 00 00
 37.149965 1  C8              Rx   d 4 14 F3 0E 00
 37.199965 1  64              Rx   d 8 EB 6F 1B 00 00 00 00 00
 37.249964 1  C8              Rx   d 4 16 9B 0B 00
 37.299964 1  64              Rx   d 8 08 27 0E 00 00 00 00 00
 37.349964 1  C8              Rx   d 4 96 CC 0B 00
 37.399964 1  64              Rx   d 8 D2 A2 0F 00 00 00 00 00
 37.449964 1  C8              Rx   d 4 6A F5 0B 00
 37.499964 1  64              Rx   d 8 AE A8 0B 00 00 00 00 00
 37.549964 1  C8              Rx   d 4 AE E9 04 00
 37.599964 1  64              Rx   d 8 C0 8D 10 00 00 00 00 00
 37.649964 1  C8              Rx   d 4 0E C4 01 00
 37.699964 1  64              Rx   d 8 06 AD 13 00 00 00 00 00
 37.749964 1  C8              Rx   d 4 1F FF 01 00
 37.799964 1  64              Rx   d 8 05 BA 1C 00 00 00 00 00
 37.849964 1  C8              Rx   d 4 AC 56 12 00
 37.899964 1  64              Rx   d 8 51 94 07 00 00 00 00 00
 37.949964 1  C8              Rx   d 4 83 1E 13 00
 37.999964 1  64              Rx   d 8 21 82 0B 00 00 00 00 00
 38.049964 1  C8              Rx   d 4 CB C4 0D 00
 38.099964 1  64              Rx   d 8 52 72 0B 00 00 00 00 00
 38.149964 1  C8              Rx   d 4 59 4E 00 00
 38.199964 1  64              Rx   d 8 FC F7 08 00 00 00 00 00
 38.249964 1  C8              Rx   d 4 0D 38 0D 00
 38.299963 1  64              Rx   d 8 05 ED 09 00 00 00 00 00
 38.349963 1  C8              Rx   d 4 4D 03 09 00
 38.399963 1  64              Rx   d 8 26 28 1B 00 00 00 00 00
 38.449963 1  C8              Rx   d 4 73 BA 13 00
 38.499963 1  64              Rx   d 8 A0 2C 10 00 00 00 00 00
 38.549963 1  C8              Rx   d 4 6D 5F 09 00
 38.599963 1  64              Rx   d 8 E1 6C 11 00 00 00 00 00
 38.649963 1  C8              Rx   d 4 1B 7E 05 00
 38.699963 1  64              Rx   d 8 B3 10 09 00 00 00 00 00
 38.749963 1  C8              Rx   d 4 80 16 14 00
 38.799963 1  64              Rx   d 8 85 CA 0C 00 00 00 00 00
 38.849963 1  C8              Rx   d 4 CC D2 11 00
 38.899963 1  64              Rx   d 8 B9 FA 07 00 00 00 00 00
 38.949963 1  C8              Rx   d 4 A6 C6 04 00
 38.999963 1  64              Rx   d 8 58 32 18 00 00 00 00 00
 39.049963 1  C8              Rx   d 4 2E 82 11 00
 39.099963 1  64              Rx   d 8 A0 06 02 00 00 00 00 00
 39.149963 1  C8              Rx   d 4 C5 93 13 00
 39.199963 1  64              Rx   d 8 83 1A 14 00 00 00 00 00
 39.249963 1  C8              Rx   d 4 42 DD 0A 00
 39.299963 1  64              Rx   d 8 34 AB 15 00 00 00 00 00
 39.349962 1  C8              Rx   d 4 CA 8D 18 00
 39.399962 1  64              Rx   d 8 B8 6C 09 00 00 00 00 00
 39.449962 1  C8              Rx   d 4 19 5D 0D 00
 39.499962 1  64              Rx   d 8 B9 70 1B 00 00 00 00 00
 39.549962 1  C8              Rx   d 4 A4 CD 14 00
 39.599962 1  64              Rx   d 8 3E FF 04 00 00 00 00 00
 39.649962 1  C8              Rx   d 4 5A 96 0F 00
 39.699962 1  64              Rx   d 8 6C 3F 08 00 00 00 00 00
 39.749962 1  C8              Rx   d 4 96 73 13 00
 39.799962 1  64              Rx   d 8 5A FB 18 00 00 00 00 00
 39.849962 1  C8              Rx   d 4 0D 32 10 00
 39.899962 1  64              Rx   d 8 94 59 01 00 00 00 00 00
 39.949962 1  C8              Rx   d 4 92 66 08 00
 39.999962 1  64              Rx   d 8 7F B6 03 00 00 00 00 00
 40.049962 1  C8              Rx   d 4 3A 04 07 00
 40.099962 1  64              Rx   d 8 F3 23 1F 00 00 00 00 00
 40.149962 1  C8              Rx   d 4 13 CF 18 00
 40.199962 1  64              Rx   d 8 9F 31 0E 00 00 00 00 00
 40.249962 1  C8              Rx   d 4 20 9B 00 00
 40.299962 1  64              Rx   d 8 E5 E9 1B 00 00 00 00 00
 40.349962 1  C8              Rx   d 4 60 CC 01 00
 40.399961 1  64              Rx   d 8 B9 28 0F 00 00 00 00 00
 40.449961 1  C8              Rx   d 4 42 55 04 00
 40.499961 1  64              Rx   d 8 9B 52 1D 00 00 00 00 00
 40.549961 1  C8              Rx   d 4 29 F8 12 00
 40.599961 1  64              Rx   d 8 45 1C 13 00 00 00 00 00
 40.649961 1  C8              Rx   d 4 15 B2 10 00
 40.699961 1  64              Rx   d 8 76 21 19 00 00 00 00 00
 40.749961 1  C8              Rx   d 4 88 B4 02 00
 40.799961 1  64              Rx   d 8 50 23 0E 00 00 00 00 00
 40.849961 1  C8              Rx   d 4 03 F3 0E 00
 40.899961 1  64              Rx   d 8 79 28 1C 00 00 00 00 00
 40.949961 1  C8              Rx   d 4 1D BC 14 00
 40.999961 1  64              Rx   d 8 4E 78 10 00 00 00 00 00
 41.049961 1  C8              Rx   d 4 48 8C 04 00
 41.099961 1  64              Rx   d 8 90 1F 13 00 00 00 00 00
 41.149961 1  C8              Rx   d 4 99 71 08 00
 41.199961 1  64              Rx   d 8 72 6D 11 00 00 00 00 00
 41.249961 1  C8              Rx   d 4 47 F0 00 00
 41.299961 1  64              Rx   d 8 20 53 01 00 00 00 00 00
 41.349961 1  C8              Rx   d 4 82 26 19 00
 41.399961 1  64              Rx   d 8 5E 84 1B 00 00 00 00 00
 41.449960 1  C8              Rx   d 4 B7 89 0A 00
 41.499960 1  64              Rx   d 8 39 88 0E 00 00 00 00 00
 41.549960 1  C8              Rx   d 4 54 A8 02 00
 41.599960 1  64              Rx   d 8 C7 62 02 00 00 00 00 00
 41.649960 1  C8              Rx   d 4 47 DC 00 00
 41.699960 1  64              Rx   d 8 A0 6F 1D 00 00 00 00 00
 41.749960 1  C8              Rx   d 4 5F 1C 07 00
 41.799960 1  64              Rx   d 8 1B 0A 13 00 00 00 00 00
 41.849960 1  C8              Rx   d 4 A1 6E 01 00
 41.899960 1  64              Rx   d 8 9F 20 08 00 00 00 00 00
 41.949960 1  C8              Rx   d 4 C7 82 10 00
 41.999960 1  64              Rx   d 8 22 7D 10 00 00 00 00 00
 42.049960 1  C8              Rx   d 4 9C ED 01 00
 42.099960 1  64              Rx   d 8 97 6E 06 00 00 00 00 00
 42.149960 1  C8              Rx   d 4 7D 55 19 00
 42.199960 1  64              Rx   d 8 91 A7 04 00 00 00 00 00
 42.249960 1  C8              Rx   d 4 15 1D 00 00
 42.299960 1  64              Rx   d 8 77 C0 0D 00 00 00 00 00
 42.349960 1  C8              Rx   d 4 13 D9 05 00
 42.399960 1  64              Rx   d 8 90 81 04 00 00 00 00 00
 42.449960 1  C8              Rx   d 4 A1 2F 15 00
 42.499959 1  64              Rx   d 8 B5 3B 15 00 00 00 00 00
 42.549959 1  C8              Rx   d 4 B4 4A 04 00
 42.599959 1  64              Rx   d 8 A2 01 08 00 00 00 00 00
 42.649959 1  C8              Rx   d 4 0D A6 0A 00
 42.699959 1  64              Rx   d 8 D2 35 0D 00 00 00 00 00
 42.749959 1  C8              Rx   d 4 31 81 0A 00
 42.799959 1  64              Rx   d 8 C2 42 16 00 00 00 00 00
 42.849959 1  C8              Rx   d 4 D3 70 0D 00
 42.899959 1  64              Rx   d 8 0B 12 18 00 00 00 00 00
 42.949959 1  C8              Rx   d 4 90 2E 05 00
 42.999959 1  64              Rx   d 8 51 91 14 00 00 00 00 00
 43.049959 1  C8              Rx   d 4 79 3F 03 00
 43.099959 1  64              Rx   d 8 B3 52 03 00 00 00 00 00
 43.149959 1  C8              Rx   d 4 0C 0C 09 00
 43.199959 1  64              Rx   d 8 D8 0F 1C 00 00 00 00 00
 43.249959 1  C8              Rx   d 4 30 03 13 00
 43.299959 1  64              Rx   d 8 5C 1F 0C 00 00 00 00 00
 43.349959 1  C8              Rx   d 4 91 1F 16 00
 43.399959 1  64              Rx   d 8 82 8D 11 00 00 00 00 00
 43.449959 1  C8              Rx   d 4 84 B8 13 00
 43.499959 1  64              Rx   d 8 1A 30 1E 00 00 00 00 00
 43.549958 1  C8              Rx   d 4 A9 81 07 00
 43.599958 1  64              Rx   d 8 78 52 02 00 00 00 00 00
 43.649958 1  C8              Rx   d 4 0B 63 01 00
 43.699958 1  64              Rx   d 8 8D 79 0A 00 00 00 00 00
 43.749958 1  C8              Rx   d 4 77 BC 0C 00
 43.799958 1  64              Rx   d 8 E6 74 09 00 00 00 00 00
 43.849958 1  C8              Rx   d 4 26 25 18 00
 43.899958 1  64              Rx   d 8 88 63 16 00 00 00 00 00
 43.949958 1  C8              Rx   d 4 52 F2 0E 00
 43.999958 1  64              Rx   d 8 E3 AE 00 00 00 00 00 00
 44.049958 1  C8              Rx   d 4 28 70 19 00
 44.099958 1  64              Rx   d 8 B7 9A 0B 00 00 00 00 00
 44.149958 1  C8              Rx   d 4 10 4F 06 00
 44.199958 1  64              Rx   d 8 3D D6 03 00 00 00 00 00
 44.249958 1  C8              Rx   d 4 1D B8 13 00
 44.299958 1  64              Rx   d 8 0E FF 1A 00 00 00 00 00
 44.349958 1  C8              Rx   d 4 AB 93 0F 00
 44.399958 1  64              Rx   d 8 1B F9 13 00 00 00 00 00
 44.449958 1  C8              Rx   d 4 7E D7 16 00
 44.499958 1  64              Rx   d 8 EF E6 17 00 00 00 00 00
 44.549958 1  C8              Rx   d 4 56 D3 13 00
 44.599957 1  64              Rx   d 8 50 C0 07 00 00 00 00 00
 44.649957 1  C8              Rx   d 4 88 33 0C 00
 44.699957 1  64              Rx   d 8 C9 8E 0B 00 00 00 00 00
 44.749957 1  C8              Rx   d 4 3F F1 04 00
 44.799957 1  64              Rx   d 8 C2 93 0D 00 00 00 00 00
 44.849957 1  C8              Rx   d 4 98 B3 06 00
 44.899957 1  64              Rx   d 8 33 BF 0C 00 00 00 00 00
 44.949957 1  C8              Rx   d 4 70 1E 11 00
 44.999957 1  64              Rx   d 8 02 61 12 00 00 00 00 00
 45.049957 1  C8              Rx   d 4 9E A8 17 00
 45.099957 1  64              Rx   d 8 1E 33 1F 00 00 00 00 00
 45.149957 1  C8              Rx   d 4 0F 7B 19 00
 45.199957 1  64              Rx   d 8 96 D8 0E 00 00 00 00 00
 45.249957 1  C8              Rx   d 4 CB B3 0F 00
 45.299957 1  64              Rx   d 8 87 DF 0D 00 00 00 00 00
 45.349957 1  C8              Rx   d 4 AC 12 0C 00
 45.399957 1  64              Rx   d 8 4A C6 07 00 00 00 00 00
 45.449957 1  C8              Rx   d 4 CA 8A 18 00
 45.499957 1  64              Rx   d 8 51 52 13 00 00 00 00 00
 45.549957 1  C8              Rx   d 4 B0 60 00 00
 45.599957 1  64              Rx   d 8 E4 D0 13 00 00 00 00 00
 45.649956 1  C8              Rx   d 4 C4 EE 09 00
 45.699956 1  64              Rx   d 8 53 8B 0B 00 00 00 00 00
 45.749956 1  C8              Rx   d 4 73 72 13 00
 45.799956 1  64              Rx   d 8 09 A4 18 00 00 00 00 00
 45.849956 1  C8              Rx   d 4 20 AE 04 00
 45.899956 1  64              Rx   d 8 67 EA 18 00 00 00 00 00
 45.949956 1  C8              Rx   d 4 07 3A 12 00
 45.999956 1  64              Rx   d 8 1F B6 12 00 00 00 00 00
 46.049956 1  C8              Rx   d 4 35 59 14 00
 46.099956 1  64              Rx   d 8 07 BA 0F 00 00 00 00 00
 46.149956 1  C8              Rx   d 4 45 B8 0C 00
 46.199956 1  64              Rx   d 8 F0 B7 03 00 00 00 00 00
 46.249956 1  C8              Rx   d 4 D6 6A 08 00
 46.299956 1  64              Rx   d 8 8F D4 0D 00 00 00 00 00
 46.349956 1  C8              Rx   d 4 78 3D 02 00
 46.399956 1  64              Rx   d 8 B2 2E 15 00 00 00 00 00
 46.449956 1  C8              Rx   d 4 59 CD 0B 00
 46.499956 1  64              Rx   d 8 F4 D3 08 00 00 00 00 00
 46.549956 1  C8              Rx   d 4 19 4E 07 00
 46.599956 1  64              Rx   d 8 DC D6 06 00 00 00 00 00
 46.649956 1  C8              Rx   d 4 72 91 0C 00
 46.699955 1  64              Rx   d 8 3D BE 03 00 00 00 00 00
 46.749955 1  C8              Rx   d 4 A0 06 06 00
 46.799955 1  64              Rx   d 8 B1 46 13 00 00 00 00 00
 46.849955 1  C8              Rx   d 4 42 0F 11 00
 46.899955 1  64              Rx   d 8 67 B6 0A 00 00 00 00 00
 46.949955 1  C8              Rx   d 4 9F 7A 13 00
 46.999955 1  64              Rx   d 8 30 B4 14 00 00 00 00 00
 47.049955 1  C8              Rx   d 4 95 DF 15 00
 47.099955 1  64              Rx   d 8 34 20 0A 00 00 00 00 00
 47.149955 1  C8              Rx   d 4 74 F0 12 00
 47.199955 1  64              Rx   d 8 EC DA 1D 00 00 00 00 00
 47.249955 1  C8              Rx   d 4 A8 F8 0D 00
 47.299955 1  64              Rx   d 8 38 56 13 00 00 00 00 00
 47.349955 1  C8              Rx   d 4 4F 31 10 00
 47.399955 1  64              Rx   d 8 91 12 07 00 00 00 00 00
 47.449955 1  C8              Rx   d 4 64 DB 17 00
 47.499955 1  64              Rx   d 8 D4 E1 06 00 00 00 00 00
 47.549955 1  C8              Rx   d 4 84 74 0C 00
 47.599955 1  64              Rx   d 8 16 C2 0A 00 00 00 00 00
 47.649955 1  C8              Rx   d 4 49 45 15 00
 47.699955 1  64              Rx   d 8 33 31 00 00 00 00 00 00
 47.749954 1  C8              Rx   d 4 B0 0D 19 00
 47.799954 1  64              Rx   d 8 C7 62 11 00 00 00 00 00
 47.849954 1  C8              Rx   d 4 94 C3 09 00
 47.899954 1  64              Rx   d 8 26 69 0A 00 00 00 00 00
 47.949954 1  C8              Rx   d 4 C8 6E 0C 00
 47.999954 1  64              Rx   d 8 CE BD 0F 00 00 00 00 00
 48.049954 1  C8              Rx   d 4 92 23 0B 00
 48.099954 1  64              Rx   d 8 F0 61 15 00 00 00 00 00
 48.149954 1  C8              Rx   d 4 2B 17 10 00
 48.199954 1  64              Rx   d 8 9D FF 0A 00 00 00 00 00
 48.249954 1  C8              Rx   d 4 B5 A6 06 00
 48.299954 1  64              Rx   d 8 E6 5D 0E 00 00 00 00 00
 48.349954 1  C8              Rx   d 4 19 C8 0F 00
 48.399954 1  64              Rx   d 8 54 27 07 00 00 00 00 00
 48.449954 1  C8              Rx   d 4 67 9F 0B 00
 48.499954 1  64              Rx   d 8 45 2A 1D 00 00 00 00 00
 48.549954 1  C8              Rx   d 4 96 5B 06 00
 48.599954 1  64              Rx   d 8 19 61 02 00 00 00 00 00
 48.649954 1  C8              Rx   d 4 00 42 0D 00
 48.699954 1  64              Rx   d 8 04 40 06 00 00 00 00 00
 48.749954 1  C8              Rx   d 4 54 0C 12 00
 48.799953 1  64              Rx   d 8 6A 90 10 00 00 00 00 00
 48.849953 1  C8              Rx   d 4 25 C5 16 00
 48.899953 1  64              Rx   d 8 E5 B1 05 00 00 00 00 00
 48.949953 1  C8              Rx   d 4 17 BF 0F 00
 48.999953 1  64              Rx   d 8 7D 30 18 00 00 00 00 00
 49.049953 1  C8              Rx   d 4 81 6F 07 00
 49.099953 1  64              Rx   d 8 46 37 1C 00 00 00 00 00
 49.149953 1  C8              Rx   d 4 9C A5 08 00
 49.199953 1  64              Rx   d 8 8C D6 11 00 00 00 00 00
 49.249953 1  C8              Rx   d 4 96 22 10 00
 49.299953 1  64              Rx   d 8 BE 85 0E 00 00 00 00 00
 49.349953 1  C8              Rx   d 4 17 6D 08 00
 49.399953 1  64              Rx   d 8 97 AD 1E 00 00 00 00 00
 49.449953 1  C8              Rx   d 4 6E BB 00 00
 49.499953 1  64              Rx   d 8 E9 17 07 00 00 00 00 00
 49.549953 1  C8              Rx   d 4 3B 48 0E 00
 49.599953 1  64              Rx   d 8 69 30 18 00 00 00 00 00
 49.649953 1  C8              Rx   d 4 93 50 07 00
 49.699953 1  64              Rx   d 8 E7 78 0E 00 00 00 00 00
 49.749953 1  C8              Rx   d 4 62 E5 0A 00
 49.799953 1  64              Rx   d 8 77 26 18 00 00 00 00 00
 49.849952 1  C8              Rx   d 4 A8 21 01 00
 49.899952 1  64              Rx   d 8 38 AF 0A 00 00 00 00 00
 49.949952 1  C8              Rx   d 4 77 4B 03 00
 49.999952 1  64              Rx   d 8 B8 79 0D 00 00 00 00 00
 50.049952 1  C8              Rx   d 4 99 AD 0C 00
 50.099952 1  64              Rx   d 8 30 F0 15 00 00 00 00 00
 50.149952 1  C8              Rx   d 4 6C 5D 14 00
 50.199952 1  64              Rx   d 8 46 EF 13 00 00 00 00 00
 50.249952 1  C8              Rx   d 4 67 D3 03 00
 50.299952 1  64              Rx   d 8 C8 3E 0C 00 00 00 00 00
 50.349952 1  C8              Rx   d 4 8A 53 0A 00
 50.399952 1  64              Rx   d 8 4D D2 1B 00 00 00 00 00
 50.449952 1  C8              Rx   d 4 C8 BF 16 00
 50.499952 1  64              Rx   d 8 43 40 07 00 00 00 00 00
 50.549952 1  C8              Rx   d 4 5F DC 18 00
 50.599952 1  64              Rx   d 8 1F 25 17 00 00 00 00 00
 50.649952 1  C8              Rx   d 4 7C EC 09 00
 50.699952 1  64              Rx   d 8 4B 57 1E 00 00 00 00 00
 50.749952 1  C8              Rx   d 4 71 EB 09 00
 50.799952 1  64              Rx   d 8 B8 F5 01 00 00 00 00 00
 50.849952 1  C8              Rx   d 4 86 57 0D 00
 50.899951 1  64              Rx   d 8 19 28 06 00 00 00 00 00
 50.949951 1  C8              Rx   d 4 1C 90 0C 00
 50.999951 1  64              Rx   d 8 29 73 07 00 00 00 00 00
 51.049951 1  C8              Rx   d 4 9C 61 10 00
 51.099951 1  64              Rx   d 8 04 69 06 00 00 00 00 00
 51.149951 1  C8              Rx   d 4 2D A3 03 00
 51.199951 1  64              Rx   d 8 13 DF 06 00 00 00 00 00
 51.249951 1  C8              Rx   d 4 A5 8B 15 00
 51.299951 1  64              Rx   d 8 1C F9 03 00 00 00 00 00
 51.349951 1  C8              Rx   d 4 BF 92 18 00
 51.399951 1  64              Rx   d 8 D9 65 0E 00 00 00 00 00
 51.449951 1  C8              Rx   d 4 66 27 05 00
 51.499951 1  64              Rx   d 8 36 76 1E 00 00 00 00 00
 51.549951 1  C8              Rx   d 4 C6 DC 10 00
 51.599951 1  64              Rx   d 8 D2 BE 1A 00 00 00 00 00
 51.649951 1  C8              Rx   d 4 1E 4D 14 00
 51.699951 1  64              Rx   d 8 C9 63 0D 00 00 00 00 00
 51.749951 1  C8              Rx   d 4 6D 4D 12 00
 51.799951 1  64              Rx   d 8 95 34 1B 00 00 00 00 00
 51.849951 1  C8              Rx   d 4 9F AA 18 00
 51.899951 1  64              Rx   d 8 C6 E7 1B 00 00 00 00 00
 51.949950 1  C8              Rx   d 4 8F D6 11 00
 51.999950 1  64              Rx   d 8 44 5F 03 00 00 00 00 00
 52.049950 1  C8              Rx   d 4 A0 45 0A 00
 52.099950 1  64              Rx   d 8 F7 6C 1A 00 00 00 00 00
 52.149950 1  C8              Rx   d 4 78 36 07 00
 52.199950 1  64              Rx   d 8 1B 13 1A 00 00 00 00 00
 52.249950 1  C8              Rx   d 4 8B 7B 0C 00
 52.299950 1  64              Rx   d 8 F4 66 0C 00 00 00 00 00
 52.349950 1  C8              Rx   d 4 8F 11 0A 00
 52.399950 1  64              Rx   d 8 C6 30 16 00 00 00 00 00
 52.449950 1  C8              Rx   d 4 26 36 13 00
 52.499950 1  64              Rx   d 8 2E FF 01 00 00 00 00 00
 52.549950 1  C8              Rx   d 4 45 1A 11 00
 52.599950 1  64              Rx   d 8 4A 05 01 00 00 00 00 00
 52.649950 1  C8              Rx   d 4 26 DB 17 00
 52.699950 1  64              Rx   d 8 15 66 0A 00 00 00 00 00
 52.749950 1  C8              Rx   d 4 A8 FB 05 00
 52.799950 1  64              Rx   d 8 F7 B1 07 00 00 00 00 00
 52.849950 1  C8              Rx   d 4 A2 E8 12 00
 52.899950 1  64              Rx   d 8 47 8E 0F 00 00 00 00 00
 52.949950 1  C8              Rx   d 4 4D 16 04 00
 52.999949 1  64              Rx   d 8 91 07 0E 00 00 00 00 00
 53.049949 1  C8              Rx   d 4 0F 36 12 00
 53.099949 1  64              Rx   d 8 61 17 1E 00 00 00 00 00
 53.149949 1  C8              Rx   d 4 66 A9 02 00
 53.199949 1  64              Rx   d 8 22 58 13 00 00 00 00 00
 53.249949 1  C8              Rx   d 4 BA 08 18 00
 53.299949 1  64              Rx   d 8 F5 F4 09 00 00 00 00 00
 53.349949 1  C8              Rx   d 4 51 58 14 00
 53.399949 1  64              Rx   d 8 B2 7C 13 00 00 00 00 00
 53.449949 1  C8              Rx   d 4 0B 63 17 00
 53.499949 1  64              Rx   d 8 23 1D 11 00 00 00 00 00
 53.549949 1  C8              Rx   d 4 6C 8B 04 00
 53.599949 1  64              Rx   d 8 5D DE 09 00 00 00 00 00
 53.649949 1  C8              Rx   d 4 02 6D 07 00
 53.699949 1  64              Rx   d 8 5D 45 14 00 00 00 00 00
 53.749949 1  C8              Rx   d 4 3F 97 14 00
 53.799949 1  64              Rx   d 8 A0 7B 0C 00 00 00 00 00
 53.849949 1  C8              Rx   d 4 99 87 02 00
 53.899949 1  64              Rx   d 8 18 5C 0A 00 00 00 00 00
 53.949949 1  C8              Rx   d 4 C6 8A 03 00
 53.999949 1  64              Rx   d 8 3C B7 1A 00 00 00 00 00
 54.049948 1  C8              Rx   d 4 7A FB 11 00
 54.099948 1  64              Rx   d 8 32 46 1E 00 00 00 00 00
 54.149948 1  C8              Rx   d 4 9C 71 02 00
 54.199948 1  64              Rx   d 8 EC 8A 03 00 00 00 00 00
 54.249948 1  C8              Rx   d 4 C7 91 0F 00
 54.299948 1  64              Rx   d 8 2D 5D 03 00 00 00 00 00
 54.349948 1  C8              Rx   d 4 47 6F 04 00
 54.399948 1  64              Rx   d 8 40 97 03 00 00 00 00 00
 54.449948 1  C8              Rx   d 4 7C 64 0E 00
 54.499948 1  64              Rx   d 8 2F A3 04 00 00 00 00 00
 54.549948 1  C8              Rx   d 4 AE 1F 18 00
 54.599948 1  64              Rx   d 8 63 3E 05 00 00 00 00 00
 54.649948 1  C8              Rx   d 4 AD F5 15 00
 54.699948 1  64              Rx   d 8 16 F2 13 00 00 00 00 00
 54.749948 1  C8              Rx   d 4 CF 44 10 00
 54.799948 1  64              Rx   d 8 6A 31 0D 00 00 00 00 00
 54.849948 1  C8              Rx   d 4 6E 98 12 00
 54.899948 1  64              Rx   d 8 1C 77 1E 00 00 00 00 00
 54.949948 1  C8              Rx   d 4 BF C3 15 00
 54.999948 1  64              Rx   d 8 A4 C2 13 00 00 00 00 00
 55.049948 1  C8              Rx   d 4 4D C8 06 00
 55.099947 1  64              Rx   d 8 2C B7 03 00 00 00 00 00
 55.149947 1  C8              Rx   d 4 51 8B 04 00
 55.199947 1  64              Rx   d 8 C0 24 16 00 00 00 00 00
 55.249947 1  C8              Rx   d 4 7A F2 06 00
 55.299947 1  64              Rx   d 8 23 BA 11 00 00 00 00 00
 55.349947 1  C8              Rx   d 4 C8 61 02 00
 55.399947 1  64              Rx   d 8 E4 7F 0F 00 00 00 00 00
 55.449947 1  C8              Rx   d 4 D0 93 11 00
 55.499947 1  64              Rx   d 8 DE 6A 04 00 00 00 00 00
 55.549947 1  C8              Rx   d 4 62 93 12 00
 55.599947 1  64              Rx   d 8 0D 05 03 00 00 00 00 00
 55.649947 1  C8              Rx   d 4 BD 4C 02 00
 55.699947 1  64              Rx   d 8 EF D3 08 00 00 00 00 00
 55.749947 1  C8              Rx   d 4 17 05 03 00
 55.799947 1  64              Rx   d 8 03 3B 11 00 00 00 00 00
 55.849947 1  C8              Rx   d 4 23 C3 0A 00
 55.899947 1  64              Rx   d 8 33 F3 16 00 00 00 00 00
 55.949947 1  C8              Rx   d 4 3F 96 14 00
 55.999947 1  64              Rx   d 8 F1 CE 03 00 00 00 00 00
 56.049947 1  C8              Rx   d 4 9D 8D 08 00
 56.099946 1  64              Rx   d 8 07 C1 10 00 00 00 00 00
 56.149946 1  C8              Rx   d 4 87 D8 03 00
 56.199946 1  64              Rx   d 8 1D EA 13 00 00 00 00 00
 56.249946 1  C8              Rx   d 4 C7 54 01 00
 56.299946 1  64              Rx   d 8 27 DF 18 00 00 00 00 00
 56.349946 1  C8              Rx   d 4 34 A3 07 00
 56.399946 1  64              Rx   d 8 5B FE 06 00 00 00 00 00
 56.449946 1  C8              Rx   d 4 D2 F0 04 00
 56.499946 1  64              Rx   d 8 B0 00 1D 00 00 00 00 00
 56.549946 1  C8              Rx   d 4 16 57 15 00
 56.599946 1  64              Rx   d 8 25 0D 14 00 00 00 00 00
 56.649946 1  C8              Rx   d 4 91 33 05 00
 56.699946 1  64              Rx   d 8 0B EF 0C 00 00 00 00 00
 56.749946 1  C8              Rx   d 4 81 5C 04 00
 56.799946 1  64              Rx   d 8 C2 C1 0C 00 00 00 00 00
 56.849946 1  C8              Rx   d 4 6F C6 0A 00
 56.899946 1  64              Rx   d 8 6B C7 11 00 00 00 00 00
 56.949946 1  C8              Rx   d 4 B7 BA 0D 00
 56.999946 1  64              Rx   d 8 50 F0 08 00 00 00 00 00
 57.049946 1  C8              Rx   d 4 6C C6 0B 00
 57.099946 1  64              Rx   d 8 34 58 17 00 00 00 00 00
 57.149945 1  C8              Rx   d 4 A2 59 04 00
 57.199945 1  64              Rx   d 8 83 C5 1D 00 00 00 00 00
 57.249945 1  C8              Rx   d 4 0B A7 06 00
 57.299945 1  64              Rx   d 8 C7 5E 14 00 00 00 00 00
 57.349945 1  C8              Rx   d 4 6F 8E 14 00
 57.399945 1  64              Rx   d 8 27 F9 09 00 00 00 00 00
 57.449945 1  C8              Rx   d 4 14 F3 09 00
 57.499945 1  64              Rx   d 8 E7 B3 01 00 00 00 00 00
 57.549945 1  C8              Rx   d 4 C5 DC 10 00
 57.599945 1  64              Rx   d 8 71 32 14 00 00 00 00 00
 57.649945 1  C8              Rx   d 4 9B C2 12 00
 57.699945 1  64              Rx   d 8 CA 75 03 00 00 00 00 00
 57.749945 1  C8              Rx   d 4 69 84 0D 00
 57.799945 1  64              Rx   d 8 B6 01 14 00 00 00 00 00
 57.849945 1  C8              Rx   d 4 40 78 10 00
 57.899945 1  64              Rx   d 8 C4 1F 03 00 00 00 00 00
 57.949945 1  C8              Rx   d 4 02 5C 01 00
 57.999945 1  64              Rx   d 8 69 4D 00 00 00 00 00 00
 58.049945 1  C8              Rx   d 4 23 1E 08 00
 58.099945 1  64              Rx   d 8 52 86 07 00 00 00 00 00
 58.149945 1  C8              Rx   d 4 39 3E 01 00
 58.199944 1  64              Rx   d 8 5D 28 1D 00 00 00 00 00
 58.249944 1  C8              Rx   d 4 02 9B 09 00
 58.299944 1  64              Rx   d 8 C7 52 1B 00 00 00 00 00
 58.349944 1  C8              Rx   d 4 B1 30 05 00
 58.399944 1  64              Rx   d 8 BE 6F 10 00 00 00 00 00
 58.449944 1  C8              Rx   d 4 D4 3B 19 00
 58.499944 1  64              Rx   d 8 5B 7A 0C 00 00 00 00 00
 58.549944 1  C8              Rx   d 4 39 05 16 00
 58.599944 1  64              Rx   d 8 E8 08 13 00 00 00 00 00
 58.649944 1  C8              Rx   d 4 B3 5C 14 00
 58.699944 1  64              Rx   d 8 1D 30 04 00 00 00 00 00
 58.749944 1  C8              Rx   d 4 63 8A 07 00
 58.799944 1  64              Rx   d 8 D2 1D 03 00 00 00 00 00
 58.849944 1  C8              Rx   d 4 4D B1 01 00
 58.899944 1  64              Rx   d 8 6E 43 0D 00 00 00 00 00
 58.949944 1  C8              Rx   d 4 C5 23 0F 00
 58.999944 1  64              Rx   d 8 8E 48 08 00 00 00 00 00
 59.049944 1  C8              Rx   d 4 51 E4 06 00
 59.099944 1  64              Rx   d 8 5E 98 09 00 00 00 00 00
 59.149944 1  C8              Rx   d 4 60 B4 0C 00
 59.199944 1  64              Rx   d 8 90 DE 16 00 00 00 00 00
 59.249943 1  C8              Rx   d 4 C5 83 04 00
 59.299943 1  64              Rx   d 8 E2 9C 1C 00 00 00 00 00
 59.349943 1  C8              Rx   d 4 84 E7 10 00
 59.399943 1  64              Rx   d 8 8C 17 05 00 00 00 00 00
 59.449943 1  C8              Rx   d 4 3B 36 08 00
 59.499943 1  64              Rx   d 8 5D F6 09 00 00 00 00 00
 59.549943 1  C8              Rx   d 4 09 3E 09 00
 59.599943 1  64              Rx   d 8 DE 95 00 00 00 00 00 00
 59.649943 1  C8              Rx   d 4 1A 4F 02 00
 59.699943 1  64              Rx   d 8 8D 6F 0A 00 00 00 00 00
 59.749943 1  C8              Rx   d 4 07 35 18 00
 59.799943 1  64              Rx   d 8 31 01 08 00 00 00 00 00
 59.849943 1  C8              Rx   d 4 9D 7B 18 00
 59.899943 1  64              Rx   d 8 96 9C 09 00 00 00 00 00
 59.949943 1  C8              Rx   d 4 91 28 0D 00
 59.999943 1  64              Rx   d 8 E1 38 1F 00 00 00 00 00
 60.049943 1  C8              Rx   d 4 4D BA 13 00
 60.099943 1  64              Rx   d 8 E7 A6 0D 00 00 00 00 00
 60.149943 1  C8              Rx   d 4 2C A5 02 00
 60.199943 1  64              Rx   d 8 28 C4 1D 00 00 00 00 00
 60.249943 1  C8              Rx   d 4 98 33 0E 00
 60.299942 1  64              Rx   d 8 C8 FD 0A 00 00 00 00 00
 60.349942 1  C8              Rx   d 4 15 CE 14 00
 60.399942 1  64              Rx   d 8 9A A6 0E 00 00 00 00 00
 60.449942 1  C8              Rx   d 4 5D 96 09 00
 60.499942 1  64              Rx   d 8 86 3F 03 00 00 00 00 00
 60.549942 1  C8              Rx   d 4 5A A6 0C 00
 60.599942 1  64              Rx   d 8 C6 AE 08 00 00 00 00 00
 60.649942 1  C8              Rx   d 4 D2 FA 07 00
 60.699942 1  64              Rx   d 8 87 50 02 00 00 00 00 00
 60.749942 1  C8              Rx   d 4 CF 9E 0E 00
 60.799942 1  64              Rx   d 8 C9 55 1C 00 00 00 00 00
 60.849942 1  C8              Rx   d 4 B3 9A 15 00
 60.899942 1  64              Rx   d 8 B6 09 09 00 00 00 00 00
 60.949942 1  C8              Rx   d 4 BF 47 18 00
 60.999942 1  64              Rx   d 8 EE A2 18 00 00 00 00 00
 61.049942 1  C8              Rx   d 4 76 7D 10 00
 61.099942 1  64              Rx   d 8 08 44 0B 00 00 00 00 00
 61.149942 1  C8              Rx   d 4 49 E8 16 00
 61.199942 1  64              Rx   d 8 11 5B 17 00 00 00 00 00
 61.249942 1  C8              Rx   d 4 4A E7 0E 00
 61.299942 1  64              Rx   d 8 02 3B 16 00 00 00 00 00
 61.349941 1  C8              Rx   d 4 9F E5 14 00
 61.399941 1  64              Rx   d 8 B0 DF 1C 00 00 00 00 00
 61.449941 1  C8              Rx   d 4 3A CE 0A 00
 61.499941 1  64              Rx   d 8 1A FE 19 00 00 00 00 00
 61.549941 1  C8              Rx   d 4 58 50 02 00
 61.599941 1  64              Rx   d 8 E0 B2 19 00 00 00 00 00
 61.649941 1  C8              Rx   d 4 19 3D 0B 00
 61.699941 1  64              Rx   d 8 CC 2F 01 00 00 00 00 00
 61.749941 1  C8              Rx   d 4 37 97 15 00
 61.799941 1  64              Rx   d 8 C0 33 0D 00 00 00 00 00
 61.849941 1  C8              Rx   d 4 15 13 10 00
 61.899941 1  64              Rx   d 8 24 11 0A 00 00 00 00 00
 61.949941 1  C8              Rx   d 4 2E 88 11 00
 61.999941 1  64              Rx   d 8 C7 DE 19 00 00 00 00 00
 62.049941 1  C8              Rx   d 4 32 6D 13 00
 62.099941 1  64              Rx   d 8 55 A4 15 00 00 00 00 00
 62.149941 1  C8              Rx   d 4 38 EE 17 00
 62.199941 1  64              Rx   d 8 99 FE 12 00 00 00 00 00
 62.249941 1  C8              Rx   d 4 A2 A2 09 00
 62.299941 1  64              Rx   d 8 A8 C2 07 00 00 00 00 00
 62.349941 1  C8              Rx   d 4 52 5C 0C 00
 62.399940 1  64              Rx   d 8 52 6C 13 00 00 00 00 00
 62.449940 1  C8              Rx   d 4 64 0D 01 00
 62.499940 1  64              Rx   d 8 0D E6 12 00 00 00 00 00
 62.549940 1  C8              Rx   d 4 5A 80 07 00
 62.599940 1  64              Rx   d 8 8F 7F 02 00 00 00 00 00
 62.649940 1  C8              Rx   d 4 C6 99 01 00
 62.699940 1  64              Rx   d 8 F5 25 1B 00 00 00 00 00
 62.749940 1  C8              Rx   d 4 50 44 05 00
 62.799940 1  64              Rx   d 8 6C 7D 01 00 00 00 00 00
 62.849940 1  C8              Rx   d 4 68 EF 02 00
 62.899940 1  64              Rx   d 8 F1 61 1D 00 00 00 00 00
 62.949940 1  C8              Rx   d 4 96 C8 11 00
 62.999940 1  64              Rx   d 8 25 46 18 00 00 00 00 00
 63.049940 1  C8              Rx   d 4 77 8F 0D 00
 63.099940 1  64              Rx   d 8 CB F7 13 00 00 00 00 00
 63.149940 1  C8              Rx   d 4 87 4D 10 00
 63.199940 1  64              Rx   d 8 3C 05 0D 00 00 00 00 00
 63.249940 1  C8              Rx   d 4 75 E7 0C 00
 63.299940 1  64              Rx   d 8 16 E4 13 00 00 00 00 00
 63.349940 1  C8              Rx   d 4 7F CD 15 00
 63.399940 1  64              Rx   d 8 BB 3E 1E 00 00 00 00 00
 63.449939 1  C8              Rx   d 4 77 F9 0D 00
 63.499939 1  64              Rx   d 8 E2 FF 04 00 00 00 00 00
 63.549939 1  C8              Rx   d 4 81 F4 01 00
 63.599939 1  64              Rx   d 8 67 4D 04 00 00 00 00 00
 63.649939 1  C8              Rx   d 4 0B 51 0B 00
 63.699939 1  64              Rx   d 8 3B 8A 0B 00 00 00 00 00
 63.749939 1  C8              Rx   d 4 CF 78 04 00
 63.799939 1  64              Rx   d 8 C1 8C 00 00 00 00 00 00
 63.849939 1  C8              Rx   d 4 18 37 13 00
 63.899939 1  64              Rx   d 8 DF 69 1D 00 00 00 00 00
 63.949939 1  C8              Rx   d 4 5E 9D 16 00
 63.999939 1  64              Rx   d 8 2D B6 1C 00 00 00 00 00
 64.049939 1  C8              Rx   d 4 4C AB 00 00
 64.099939 1  64              Rx   d 8 16 E2 16 00 00 00 00 00
 64.149939 1  C8              Rx   d 4 25 AF 08 00
 64.199939 1  64              Rx   d 8 02 23 02 00 00 00 00 00
 64.249939 1  C8              Rx   d 4 5D 87 06 00
 64.299939 1  64              Rx   d 8 82 5A 0F 00 00 00 00 00
 64.349939 1  C8              Rx   d 4 CF 3E 11 00
 64.399939 1  64              Rx   d 8 6B 3B 04 00 00 00 00 00
 64.449939 1  C8              Rx   d 4 C2 8D 08 00
 64.499938 1  64              Rx   d 8 2E F8 1D 00 00 00 00 00
 64.549938 1  C8              Rx   d 4 96 10 08 00
 64.599938 1  64              Rx   d 8 C4 DA 0E 00 00 00 00 00
 64.649938 1  C8              Rx   d 4 C6 CF 07 00
 64.699938 1  64              Rx   d 8 F8 6A 06 00 00 00 00 00
 64.749938 1  C8              Rx   d 4 AF 90 06 00
 64.799938 1  64              Rx   d 8 64 04 04 00 00 00 00 00
 64.849938 1  C8              Rx   d 4 B7 8A 00 00
 64.899938 1  64              Rx   d 8 19 78 14 00 00 00 00 00
 64.949938 1  C8              Rx   d 4 14 11 19 00
 64.999938 1  64              Rx   d 8 F7 20 19 00 00 00 00 00
 65.049938 1  C8              Rx   d 4 56 12 10 00
 65.099938 1  64              Rx   d 8 2F D4 09 00 00 00 00 00
 65.149938 1  C8              Rx   d 4 98 38 00 00
 65.199938 1  64              Rx   d 8 25 83 10 00 00 00 00 00
 65.249938 1  C8              Rx   d 4 3A BA 09 00
 65.299938 1  64              Rx   d 8 36 9D 05 00 00 00 00 00
 65.349938 1  C8              Rx   d 4 BE F6 04 00
 65.399938 1  64              Rx   d 8 F2 0E 18 00 00 00 00 00
 65.449938 1  C8              Rx   d 4 5F 2D 02 00
 65.499938 1  64              Rx   d 8 00 B6 0E 00 00 00 00 00
 65.549937 1  C8              Rx   d 4 30 B0 12 00
 65.599937 1  64              Rx   d 8 04 26 0D 00 00 00 00 00
 65.649937 1  C8              Rx   d 4 2E 9C 13 00
 65.699937 1  64              Rx   d 8 74 57 09 00 00 00 00 00
 65.749937 1  C8              Rx   d 4 54 7D 01 00
 65.799937 1  64              Rx   d 8 A5 6C 12 00 00 00 00 00
 65.849937 1  C8              Rx   d 4 CF 9E 00 00
 65.899937 1  64              Rx   d 8 2A 21 1C 00 00 00 00 00
 65.949937 1  C8              Rx   d 4 D6 B1 16 00
 65.999937 1  64              Rx   d 8 DE CA 17 00 00 00 00 00
 66.049937 1  C8              Rx   d 4 00 89 08 00
 66.099937 1  64              Rx   d 8 96 53 16 00 00 00 00 00
 66.149937 1  C8              Rx   d 4 0E 37 16 00
 66.199937 1  64              Rx   d 8 AE C1 1B 00 00 00 00 00
 66.249937 1  C8              Rx   d 4 38 46 15 00
 66.299937 1  64              Rx   d 8 C6 E7 19 00 00 00 00 00
 66.349937 1  C8              Rx   d 4 3D 76 10 00
 66.399937 1  64              Rx   d 8 A8 1A 0C 00 00 00 00 00
 66.449937 1  C8              Rx   d 4 70 71 05 00
 66.499937 1  64              Rx   d 8 2C 26 13 00 00 00 00 00
 66.549937 1  C8              Rx   d 4 19 EB 11 00
 66.599936 1  64              Rx   d 8 39 FD 10 00 00 00 00 00
 66.649936 1  C8              Rx   d 4 05 8E 0B 00
 66.699936 1  64              Rx   d 8 8F F8 0D 00 00 00 00 00
 66.749936 1  C8              Rx   d 4 BA 65 16 00
 66.799936 1  64              Rx   d 8 92 AF 19 00 00 00 00 00
 66.849936 1  C8              Rx   d 4 B9 0A 0C 00
 66.899936 1  64              Rx   d 8 74 02 13 00 00 00 00 00
 66.949936 1  C8              Rx   d 4 38 17 12 00
 66.999936 1  64              Rx   d 8 9A 79 16 00 00 00 00 00
 67.049936 1  C8              Rx   d 4 AA 9A 09 00
 67.099936 1  64              Rx   d 8 9F FB 12 00 00 00 00 00
 67.149936 1  C8              Rx   d 4 A5 BF 11 00
 67.199936 1  64              Rx   d 8 4E 61 1B 00 00 00 00 00
 67.249936 1  C8              Rx   d 4 A5 AB 0C 00
 67.299936 1  64              Rx   d 8 6A 3D 11 00 00 00 00 00
 67.349936 1  C8              Rx   d 4 1A 3B 09 00
 67.399936 1  64              Rx   d 8 36 88 16 00 00 00 00 00
 67.449936 1  C8              Rx   d 4 11 02 0E 00
 67.499936 1  64              Rx   d 8 C6 A4 19 00 00 00 00 00
 67.549936 1  C8              Rx   d 4 D3 BD 08 00
 67.599936 1  64              Rx   d 8 DF AC 02 00 00 00 00 00
 67.649935 1  C8              Rx   d 4 CB D9 03 00
 67.699935 1  64              Rx   d 8 F8 AE 02 00 00 00 00 00
 67.749935 1  C8              Rx   d 4 7E BA 12 00
 67.799935 1  64              Rx   d 8 BD 27 01 00 00 00 00 00
 67.849935 1  C8              Rx   d 4 18 00 08 00
 67.899935 1  64              Rx   d 8 AE 23 06 00 00 00 00 00
 67.949935 1  C8              Rx   d 4 73 B8 0B 00
 67.999935 1  64              Rx   d 8 E2 45 09 00 00 00 00 00
 68.049935 1  C8              Rx   d 4 6C EC 04 00
 68.099935 1  64              Rx   d 8 41 70 07 00 00 00 00 00
 68.149935 1  C8              Rx   d 4 8B 35 09 00
 68.199935 1  64              Rx   d 8 22 7F 03 00 00 00 00 00
 68.249935 1  C8              Rx   d 4 35 61 07 00
 68.299935 1  64              Rx   d 8 0B 4F 0F 00 00 00 00 00
 68.349935 1  C8              Rx   d 4 B1 4F 13 00
 68.399935 1  64              Rx   d 8 BB 18 05 00 00 00 00 00
 68.449935 1  C8              Rx   d 4 A8 72 08 00
 68.499935 1  64              Rx   d 8 3E 7B 1C 00 00 00 00 00
 68.549935 1  C8              Rx   d 4 97 45 05 00
 68.599935 1  64              Rx   d 8 CA 36 02 00 00 00 00 00
 68.649935 1  C8              Rx   d 4 93 B6 0B 00
 68.699934 1  64              Rx   d 8 D6 40 08 00 00 00 00 00
 68.749934 1  C8              Rx   d 4 4D 64 0A 00
 68.799934 1  64              Rx   d 8 1E 5A 0D 00 00 00 00 00
 68.849934 1  C8              Rx   d 4 82 09 16 00
 68.899934 1  64              Rx   d 8 02 E5 00 00 00 00 00 00
 68.949934 1  C8              Rx   d 4 3D B5 0B 00
 68.999934 1  64              Rx   d 8 52 D0 1C 00 00 00 00 00
 69.049934 1  C8              Rx   d 4 64 ED 17 00
 69.099934 1  64              Rx   d 8 52 65 16 00 00 00 00 00
 69.149934 1  C8              Rx   d 4 D4 49 0C 00
 69.199934 1  64              Rx   d 8 85 F6 10 00 00 00 00 00
 69.249934 1  C8              Rx   d 4 0D 19 0E 00
 69.299934 1  64              Rx   d 8 DD 7B 1A 00 00 00 00 00
 69.349934 1  C8              Rx   d 4 83 D0 12 00
 69.399934 1  64              Rx   d 8 39 6D 06 00 00 00 00 00
 69.449934 1  C8              Rx   d 4 97 C4 0D 00
 69.499934 1  64              Rx   d 8 88 49 08 00 00 00 00 00
 69.549934 1  C8              Rx   d 4 91 5D 12 00
 69.599934 1  64              Rx   d 8 09 0D 16 00 00 00 00 00
 69.649934 1  C8              Rx   d 4 CC A2 14 00
 69.699934 1  64              Rx   d 8 2F C1 1A 00 00 00 00 00
 69.749933 1  C8              Rx   d 4 A7 03 0A 00
 69.799933 1  64              Rx   d 8 C6 32 06 00 00 00 00 00
 69.849933 1  C8              Rx   d 4 8D BC 05 00
 69.899933 1  64              Rx   d 8 DE 38 09 00 00 00 00 00
 69.949933 1  C8              Rx   d 4 68 B8 15 00
 69.999933 1  64              Rx   d 8 13 CC 07 00 00 00 00 00
 70.049933 1  C8              Rx   d 4 55 4D 15 00
 70.099933 1  64              Rx   d 8 AA C3 05 00 00 00 00 00
 70.149933 1  C8              Rx   d 4 22 A2 03 00
 70.199933 1  64              Rx   d 8 4E 47 1D 00 00 00 00 00
 70.249933 1  C8              Rx   d 4 7C B3 0C 00
 70.299933 1  64              Rx   d 8 DC 17 14 00 00 00 00 00
 70.349933 1  C8              Rx   d 4 1C A0 09 00
 70.399933 1  64              Rx   d 8 51 B7 09 00 00 00 00 00
 70.449933 1  C8              Rx   d 4 D4 04 0A 00
 70.499933 1  64              Rx   d 8 01 AA 18 00 00 00 00 00
 70.549933 1  C8              Rx   d 4 4E 13 05 00
 70.599933 1  64              Rx   d 8 62 BF 1C 00 00 00 00 00
 70.649933 1  C8              Rx   d 4 97 90 00 00
 70.699933 1  64              Rx   d 8 70 3C 03 00 00 00 00 00
 70.749933 1  C8              Rx   d 4 12 E5 0C 00
 70.799932 1  64              Rx   d 8 C7 A6 05 00 00 00 00 00
 70.849932 1  C8              Rx   d 4 B1 F2 15 00
 70.899932 1  64              Rx   d 8 F7 24 1F 00 00 00 00 00
 70.949932 1  C8              Rx   d 4 CF 3D 0A 00
 70.999932 1  64              Rx   d 8 C3 17 15 00 00 00 00 00
 71.049932 1  C8              Rx   d 4 71 58 05 00
 71.099932 1  64              Rx   d 8 8E FD 01 00 00 00 00 00
 71.149932 1  C8              Rx   d 4 22 74 03 00
 71.199932 1  64              Rx   d 8 05 9D 0C 00 00 00 00 00
 71.249932 1  C8              Rx   d 4 31 BF 14 00
 71.299932 1  64              Rx   d 8 58 1D 13 00 00 00 00 00
 71.349932 1  C8              Rx   d 4 D3 6E 14 00
 71.399932 1  64              Rx   d 8 31 BE 05 00 00 00 00 00
 71.449932 1  C8              Rx   d 4 4C 91 02 00
 71.499932 1  64              Rx   d 8 64 BA 11 00 00 00 00 00
 71.549932 1  C8              Rx   d 4 34 39 12 00
 71.599932 1  64              Rx   d 8 98 5F 18 00 00 00 00 00
 71.649932 1  C8              Rx   d 4 3A E9 15 00
 71.699932 1  64              Rx   d 8 9B A8 0A 00 00 00 00 00
 71.749932 1  C8              Rx   d 4 21 AD 11 00
 71.799932 1  64              Rx   d 8 E5 A1 11 00 00 00 00 00
 71.849931 1  C8              Rx   d 4 0B 96 01 00
 71.899931 1  64              Rx   d 8 39 1A 1B 00 00 00 00 00
 71.949931 1  C8              Rx   d 4 21 CC 12 00
 71.999931 1  64              Rx   d 8 EF DA 08 00 00 00 00 00
 72.049931 1  C8              Rx   d 4 8E 2E 10 00
 72.099931 1  64              Rx   d 8 51 F1 16 00 00 00 00 00
 72.149931 1  C8              Rx   d 4 31 B2 0D 00
 72.199931 1  64              Rx   d 8 C4 45 03 00 00 00 00 00
 72.249931 1  C8              Rx   d 4 4F F0 0B 00
 72.299931 1  64              Rx   d 8 E5 C4 1B 00 00 00 00 00
 72.349931 1  C8              Rx   d 4 20 43 0C 00
 72.399931 1  64              Rx   d 8 F8 15 1F 00 00 00 00 00
 72.449931 1  C8              Rx   d 4 7B ED 0A 00
 72.499931 1  64              Rx   d 8 85 30 05 00 00 00 00 00
 72.549931 1  C8              Rx   d 4 52 17 04 00
 72.599931 1  64              Rx   d 8 02 AD 19 00 00 00 00 00
 72.649931 1  C8              Rx   d 4 90 DC 07 00
 72.699931 1  64              Rx   d 8 78 65 0C 00 00 00 00 00
 72.749931 1  C8              Rx   d 4 B3 A1 06 00
 72.799931 1  64              Rx   d 8 6F 01 19 00 00 00 00 00
 72.849931 1  C8              Rx   d 4 56 B2 13 00
 72.899930 1  64              Rx   d 8 E8 03 1A 00 00 00 00 00
 72.949930 1  C8              Rx   d 4 D1 2D 02 00
 72.999930 1  64              Rx   d 8 8A EB 0E 00 00 00 00 00
 73.049930 1  C8              Rx   d 4 5F F9 01 00
 73.099930 1  64              Rx   d 8 C1 00 09 00 00 00 00 00
 73.149930 1  C8              Rx   d 4 A2 FD 08 00
 73.199930 1  64              Rx   d 8 AF F2 0B 00 00 00 00 00
 73.249930 1  C8              Rx   d 4 60 82 15 00
 73.299930 1  64              Rx   d 8 D4 59 17 00 00 00 00 00
 73.349930 1  C8              Rx   d 4 6B 8A 0B 00
 73.399930 1  64              Rx   d 8 B1 13 00 00 00 00 00 00
 73.449930 1  C8              Rx   d 4 5B 4B 14 00
 73.499930 1  64              Rx   d 8 25 9C 05 00 00 00 00 00
 73.549930 1  C8              Rx   d 4 04 0A 18 00
 73.599930 1  64              Rx   d 8 3F F4 12 00 00 00 00 00
 73.649930 1  C8              Rx   d 4 5D 46 06 00
 73.699930 1  64              Rx   d 8 CB 5E 05 00 00 00 00 00
 73.749930 1  C8              Rx   d 4 61 88 12 00
 73.799930 1  64              Rx   d 8 FE 88 0E 00 00 00 00 00
 73.849930 1  C8              Rx   d 4 1B DE 09 00
 73.899930 1  64              Rx   d 8 20 26 06 00 00 00 00 00
 73.949929 1  C8              Rx   d 4 69 54 0B 00
 73.999929 1  64              Rx   d 8 67 5F 11 00 00 00 00 00
 74.049929 1  C8              Rx   d 4 A3 20 05 00
 74.099929 1  64              Rx   d 8 C6 02 1C 00 00 00 00 00
 74.149929 1  C8              Rx   d 4 60 EA 0C 00
 74.199929 1  64              Rx   d 8 78 E1 19 00 00 00 00 00
 74.249929 1  C8              Rx   d 4 36 B3 10 00
 74.299929 1  64              Rx   d 8 27 2A 07 00 00 00 00 00
 74.349929 1  C8              Rx   d 4 5E 30 00 00
 74.399929 1  64              Rx   d 8 49 AB 11 00 00 00 00 00
 74.449929 1  C8              Rx   d 4 C2 B9 13 00
 74.499929 1  64              Rx   d 8 F8 88 05 00 00 00 00 00
 74.549929 1  C8              Rx   d 4 46 CE 0F 00
 74.599929 1  64              Rx   d 8 94 A9 19 00 00 00 00 00
 74.649929 1  C8              Rx   d 4 22 B4 17 00
 74.699929 1  64              Rx   d 8 1E 14 0D 00 00 00 00 00
 74.749929 1  C8              Rx   d 4 CC 8B 01 00
 74.799929 1  64              Rx   d 8 DD 4F 02 00 00 00 00 00
 74.849929 1  C8              Rx   d 4 5D 9A 18 00
 74.899929 1  64              Rx   d 8 F8 85 17 00 00 00 00 00
 74.949929 1  C8              Rx   d 4 1C 1A 12 00
 74.999928 1  64              Rx   d 8 A3 55 11 00 00 00 00 00
 75.049928 1  C8              Rx   d 4 2A D5 0A 00
 75.099928 1  64              Rx   d 8 60 8B 0D 00 00 00 00 00
 75.149928 1  C8              Rx   d 4 19 30 06 00
 75.199928 1  64              Rx   d 8 C5 D8 15 00 00 00 00 00
 75.249928 1  C8              Rx   d 4 2C 9F 02 00
 75.299928 1  64              Rx   d 8 88 98 0A 00 00 00 00 00
 75.349928 1  C8              Rx   d 4 15 CB 00 00
 75.399928 1  64              Rx   d 8 B7 AF 13 00 00 00 00 00
 75.449928 1  C8              Rx   d 4 0E B7 01 00
 75.499928 1  64              Rx   d 8 9D 36 09 00 00 00 00 00
 75.549928 1  C8              Rx   d 4 BA 76 0E 00
 75.599928 1  64              Rx   d 8 E8 AA 19 00 00 00 00 00
 75.649928 1  C8              Rx   d 4 15 09 08 00
 75.699928 1  64              Rx   d 8 2A 50 1C 00 00 00 00 00
 75.749928 1  C8              Rx   d 4 75 C0 09 00
 75.799928 1  64              Rx   d 8 DB 31 0E 00 00 00 00 00
 75.849928 1  C8              Rx   d 4 53 10 04 00
 75.899928 1  64              Rx   d 8 A6 B7 03 00 00 00 00 00
 75.949928 1  C8              Rx   d 4 0C 9D 01 00
 75.999928 1  64              Rx   d 8 2D 88 1E 00 00 00 00 00
 76.049927 1  C8              Rx   d 4 26 FD 0F 00
 76.099927 1  64              Rx   d 8 27 3C 04 00 00 00 00 00
 76.149927 1  C8              Rx   d 4 B3 F2 0C 00
 76.199927 1  64              Rx   d 8 95 94 12 00 00 00 00 00
 76.249927 1  C8              Rx   d 4 26 09 0D 00
 76.299927 1  64              Rx   d 8 97 0F 07 00 00 00 00 00
 76.349927 1  C8              Rx   d 4 41 48 11 00
 76.399927 1  64              Rx   d 8 36 7F 14 00 00 00 00 00
 76.449927 1  C8              Rx   d 4 C6 E9 02 00
 76.499927 1  64              Rx   d 8 23 B8 0B 00 00 00 00 00
 76.549927 1  C8              Rx   d 4 22 A6 13 00
 76.599927 1  64              Rx   d 8 0B 32 11 00 00 00 00 00
 76.649927 1  C8              Rx   d 4 9D 2F 02 00
 76.699927 1  64              Rx   d 8 F7 77 1D 00 00 00 00 00
 76.749927 1  C8              Rx   d 4 D4 14 19 00
 76.799927 1  64              Rx   d 8 6A E9 17 00 00 00 00 00
 76.849927 1  C8              Rx   d 4 C9 CB 0F 00
 76.899927 1  64              Rx   d 8 C8 1D 1C 00 00 00 00 00
 76.949927 1  C8              Rx   d 4 A7 4E 14 00
 76.999927 1  64              Rx   d 8 CD 05 10 00 00 00 00 00
 77.049927 1  C8              Rx   d 4 81 F5 12 00
 77.099926 1  64              Rx   d 8 26 56 1B 00 00 00 00 00
 77.149926 1  C8              Rx   d 4 5A 1C 11 00
 77.199926 1  64              Rx   d 8 4F BC 08 00 00 00 00 00
 77.249926 1  C8              Rx   d 4 05 01 14 00
 77.299926 1  64              Rx   d 8 BB 42 12 00 00 00 00 00
 77.349926 1  C8              Rx   d 4 74 01 04 00
 77.399926 1  64              Rx   d 8 AB F1 08 00 00 00 00 00
 77.449926 1  C8              Rx   d 4 1D 92 05 00
 77.499926 1  64              Rx   d 8 AA B7 14 00 00 00 00 00
 77.549926 1  C8              Rx   d 4 3D 35 13 00
 77.599926 1  64              Rx   d 8 E9 B9 18 00 00 00 00 00
 77.649926 1  C8              Rx   d 4 80 44 19 00
 77.699926 1  64              Rx   d 8 CF 50 01 00 00 00 00 00
 77.749926 1  C8              Rx   d 4 18 23 0F 00
 77.799926 1  64              Rx   d 8 90 2C 1F 00 00 00 00 00
 77.849926 1  C8              Rx   d 4 61 56 0E 00
 77.899926 1  64              Rx   d 8 7D 19 1A 00 00 00 00 00
 77.949926 1  C8              Rx   d 4 66 AF 0F 00
 77.999926 1  64              Rx   d 8 2B 04 08 00 00 00 00 00
 78.049926 1  C8              Rx   d 4 08 1B 0E 00
 78.099926 1  64              Rx   d 8 33 A0 03 00 00 00 00 00
 78.149925 1  C8              Rx   d 4 44 16 0C 00
 78.199925 1  64              Rx   d 8 31 D2 16 00 00 00 00 00
 78.249925 1  C8              Rx   d 4 3F 58 02 00
 78.299925 1  64              Rx   d 8 B3 36 17 00 00 00 00 00
 78.349925 1  C8              Rx   d 4 8F 24 0A 00
 78.399925 1  64              Rx   d 8 C7 F4 0A 00 00 00 00 00
 78.449925 1  C8              Rx   d 4 5F 52 0C 00
 78.499925 1  64              Rx   d 8 3F 8C 05 00 00 00 00 00
 78.549925 1  C8              Rx   d 4 50 C5 02 00
 78.599925 1  64              Rx   d 8 F7 AF 16 00 00 00 00 00
 78.649925 1  C8              Rx   d 4 3A F3 0C 00
 78.699925 1  64              Rx   d 8 13 4D 18 00 00 00 00 00
 78.749925 1  C8              Rx   d 4 8A F5 16 00
 78.799925 1  64              Rx   d 8 8E 8E 05 00 00 00 00 00
 78.849925 1  C8              Rx   d 4 14 05 17 00
 78.899925 1  64              Rx   d 8 90 3D 08 00 00 00 00 00
 78.949925 1  C8              Rx   d 4 A7 0A 0E 00
 78.999925 1  64              Rx   d 8 9B 15 04 00 00 00 00 00
 79.049925 1  C8              Rx   d 4 18 80 19 00
 79.099925 1  64              Rx   d 8 CA D9 00 00 00 00 00 00
 79.149925 1  C8              Rx   d 4 B1 E7 17 00
 79.199924 1  64              Rx   d 8 4B F7 0C 00 00 00 00 00
 79.249924 1  C8              Rx   d 4 50 2E 03 00
 79.299924 1  64              Rx   d 8 6F B0 19 00 00 00 00 00
 79.349924 1  C8              Rx   d 4 BD 19 05 00
 79.399924 1  64              Rx   d 8 1C 33 01 00 00 00 00 00
 79.449924 1  C8              Rx   d 4 74 2B 19 00
 79.499924 1  64              Rx   d 8 8F 74 0F 00 00 00 00 00
 79.549924 1  C8              Rx   d 4 30 8B 0E 00
 79.599924 1  64              Rx   d 8 DA 30 00 00 00 00 00 00
 79.649924 1  C8              Rx   d 4 D7 8E 09 00
 79.699924 1  64              Rx   d 8 5C 56 15 00 00 00 00 00
 79.749924 1  C8              Rx   d 4 77 FC 04 00
 79.799924 1  64              Rx   d 8 77 3A 12 00 00 00 00 00
 79.849924 1  C8              Rx   d 4 27 D4 03 00
 79.899924 1  64              Rx   d 8 E8 D8 08 00 00 00 00 00
 79.949924 1  C8              Rx   d 4 92 FC 16 00
 79.999924 1  64              Rx   d 8 D5 38 1A 00 00 00 00 00
 80.049924 1  C8              Rx   d 4 09 75 04 00
 80.099924 1  64              Rx   d 8 03 95 1B 00 00 00 00 00
 80.149924 1  C8              Rx   d 4 35 3F 16 00
 80.199924 1  64              Rx   d 8 55 E2 00 00 00 00 00 00
 80.249923 1  C8              Rx   d 4 A7 BB 0F 00
 80.299923 1  64              Rx   d 8 8F 21 13 00 00 00 00 00
 80.349923 1  C8              Rx   d 4 99 E9 0F 00
 80.399923 1  64              Rx   d 8 C7 16 13 00 00 00 00 00
 80.449923 1  C8              Rx   d 4 47 46 11 00
 80.499923 1  64              Rx   d 8 22 0D 0F 00 00 00 00 00
 80.549923 1  C8              Rx   d 4 4B 16 0C 00
 80.599923 1  64              Rx   d 8 FB 52 0A 00 00 00 00 00
 80.649923 1  C8              Rx   d 4 58 EE 18 00
 80.699923 1  64              Rx   d 8 71 28 03 00 00 00 00 00
 80.749923 1  C8              Rx   d 4 58 1C 0A 00
 80.799923 1  64              Rx   d 8 C2 EA 0C 00 00 00 00 00
 80.849923 1  C8              Rx   d 4 97 0E 11 00
 80.899923 1  64              Rx   d 8 2C 29 0A 00 00 00 00 00
 80.949923 1  C8              Rx   d 4 81 BF 06 00
 80.999923 1  64              Rx   d 8 B9 23 08 00 00 00 00 00
 81.049923 1  C8              Rx   d 4 BA F8 17 00
 81.099923 1  64              Rx   d 8 AB FE 08 00 00 00 00 00
 81.149923 1  C8              Rx   d 4 C0 DA 14 00
 81.199923 1  64              Rx   d 8 D0 E5 12 00 00 00 00 00
 81.249923 1  C8              Rx   d 4 78 2B 01 00
 81.299922 1  64              Rx   d 8 51 12 03 00 00 00 00 00
 81.349922 1  C8              Rx   d 4 1F 42 05 00
 81.399922 1  64              Rx   d 8 EF B6 0C 00 00 00 00 00
 81.449922 1  C8              Rx   d 4 38 68 03 00
 81.499922 1  64              Rx   d 8 79 70 1D 00 00 00 00 00
 81.549922 1  C8              Rx   d 4 53 4E 12 00
 81.599922 1  64              Rx   d 8 12 6F 17 00 00 00 00 00
 81.649922 1  C8              Rx   d 4 02 44 0B 00
 81.699922 1  64              Rx   d 8 D8 02 0A 00 00 00 00 00
 81.749922 1  C8              Rx   d 4 37 0E 19 00
 81.799922 1  64              Rx   d 8 37 5C 19 00 00 00 00 00
 81.849922 1  C8              Rx   d 4 84 4D 17 00
 81.899922 1  64              Rx   d 8 B6 4F 0A 00 00 00 00 00
 81.949922 1  C8              Rx   d 4 23 4C 03 00
 81.999922 1  64              Rx   d 8 CB 7D 01 00 00 00 00 00
 82.049922 1  C8              Rx   d 4 A5 64 00 00
 82.099922 1  64              Rx   d 8 AD 23 0A 00 00 00 00 00
 82.149922 1  C8              Rx   d 4 66 7F 0A 00
 82.199922 1  64              Rx   d 8 65 37 13 00 00 00 00 00
 82.249922 1  C8              Rx   d 4 0B 4D 05 00
 82.299922 1  64              Rx   d 8 14 21 01 00 00 00 00 00
 82.349921 1  C8              Rx   d 4 D4 F8 16 00
 82.399921 1  64              Rx   d 8 F9 21 02 00 00 00 00 00
 82.449921 1  C8              Rx   d 4 85 90 0E 00
 82.499921 1  64              Rx   d 8 47 00 1B 00 00 00 00 00
 82.549921 1  C8              Rx   d 4 B9 24 17 00
 82.599921 1  64              Rx   d 8 A6 F0 1D 00 00 00 00 00
 82.649921 1  C8              Rx   d 4 90 51 01 00
 82.699921 1  64              Rx   d 8 0C F6 1D 00 00 00 00 00
 82.749921 1  C8              Rx   d 4 54 3C 0B 00
 82.799921 1  64              Rx   d 8 B1 89 12 00 00 00 00 00
 82.849921 1  C8              Rx   d 4 51 54 0A 00
 82.899921 1  64              Rx   d 8 1C 58 12 00 00 00 00 00
 82.949921 1  C8              Rx   d 4 B3 99 10 00
 82.999921 1  64              Rx   d 8 0D B7 03 00 00 00 00 00
 83.049921 1  C8              Rx   d 4 D0 15 02 00
 83.099921 1  64              Rx   d 8 EF F3 14 00 00 00 00 00
 83.149921 1  C8              Rx   d 4 D7 8B 00 00
 83.199921 1  64              Rx   d 8 D8 F4 1E 00 00 00 00 00
 83.249921 1  C8              Rx   d 4 6F 86 0F 00
 83.299921 1  64              Rx   d 8 C5 34 00 00 00 00 00 00
 83.349921 1  C8              Rx   d 4 D6 B9 0B 00
 83.399920 1  64              Rx   d 8 A0 6C 00 00 00 00 00 00
 83.449920 1  C8              Rx   d 4 BA 34 14 00
 83.499920 1  64              Rx   d 8 9C EE 0B 00 00 00 00 00
 83.549920 1  C8              Rx   d 4 03 BC 00 00
 83.599920 1  64              Rx   d 8 23 3F 15 00 00 00 00 00
 83.649920 1  C8              Rx   d 4 5E 27 06 00
 83.699920 1  64              Rx   d 8 FE 52 0E 00 00 00 00 00
 83.749920 1  C8              Rx   d 4 9C 4E 15 00
 83.799920 1  64              Rx   d 8 CE 48 02 00 00 00 00 00
 83.849920 1  C8              Rx   d 4 52 03 17 00
 83.899920 1  64              Rx   d 8 0F D1 18 00 00 00 00 00
 83.949920 1  C8              Rx   d 4 B6 09 04 00
 83.999920 1  64              Rx   d 8 41 D6 0D 00 00 00 00 00
 84.049920 1  C8              Rx   d 4 6B D7 00 00
 84.099920 1  64              Rx   d 8 88 9D 0E 00 00 00 00 00
 84.149920 1  C8              Rx   d 4 C5 7C 16 00
 84.199920 1  64              Rx   d 8 4F DA 0E 00 00 00 00 00
 84.249920 1  C8              Rx   d 4 6C 95 02 00
 84.299920 1  64              Rx   d 8 86 2B 05 00 00 00 00 00
 84.349920 1  C8              Rx   d 4 27 F7 18 00
 84.399920 1  64              Rx   d 8 14 63 16 00 00 00 00 00
 84.449919 1  C8              Rx   d 4 D5 F1 00 00
 84.499919 1  64              Rx   d 8 6E E2 12 00 00 00 00 00
 84.549919 1  C8              Rx   d 4 A4 D8 01 00
 84.599919 1  64              Rx   d 8 65 02 00 00 00 00 00 00
 84.649919 1  C8              Rx   d 4 29 95 07 00
 84.699919 1  64              Rx   d 8 F3 E5 1C 00 00 00 00 00
 84.749919 1  C8              Rx   d 4 B8 20 18 00
 84.799919 1  64              Rx   d 8 D8 07 06 00 00 00 00 00
 84.849919 1  C8              Rx   d 4 04 84 02 00
 84.899919 1  64              Rx   d 8 73 F6 0F 00 00 00 00 00
 84.949919 1  C8              Rx   d 4 C3 E3 12 00
 84.999919 1  64              Rx   d 8 AC AC 1A 00 00 00 00 00
 85.049919 1  C8              Rx   d 4 44 DF 0D 00
 85.099919 1  64              Rx   d 8 56 FF 1E 00 00 00 00 00
 85.149919 1  C8              Rx   d 4 B9 C5 0E 00
 85.199919 1  64              Rx   d 8 55 F5 19 00 00 00 00 00
 85.249919 1  C8              Rx   d 4 37 44 0E 00
 85.299919 1  64              Rx   d 8 EB 4C 1C 00 00 00 00 00
 85.349919 1  C8              Rx   d 4 65 F0 10 00
 85.399919 1  64              Rx   d 8 6D 5F 15 00 00 00 00 00
 85.449919 1  C8              Rx   d 4 82 8A 01 00
 85.499918 1  64              Rx   d 8 13 34 10 00 00 00 00 00
 85.549918 1  C8              Rx   d 4 A1 7A 08 00
 85.599918 1  64              Rx   d 8 63 21 06 00 00 00 00 00
 85.649918 1  C8              Rx   d 4 29 5E 05 00
 85.699918 1  64              Rx   d 8 A7 C5 07 00 00 00 00 00
 85.749918 1  C8              Rx   d 4 54 1D 0B 00
 85.799918 1  64              Rx   d 8 1F C7 1E 00 00 00 00 00
 85.849918 1  C8              Rx   d 4 5F 5C 18 00
 85.899918 1  64              Rx   d 8 4F 87 0C 00 00 00 00 00
 85.949918 1  C8              Rx   d 4 24 74 18 00
 85.999918 1  64              Rx   d 8 00 2B 03 00 00 00 00 00
 86.049918 1  C8              Rx   d 4 96 C1 08 00
 86.099918 1  64              Rx   d 8 76 93 14 00 00 00 00 00
 86.149918 1  C8              Rx   d 4 84 C0 03 00
 86.199918 1  64              Rx   d 8 36 8C 02 00 00 00 00 00
 86.249918 1  C8              Rx   d 4 41 E1 18 00
 86.299918 1  64              Rx   d 8 6D 1C 0F 00 00 00 00 00
 86.349918 1  C8              Rx   d 4 C1 D4 0E 00
 86.399918 1  64              Rx   d 8 D9 AC 14 00 00 00 00 00
 86.449918 1  C8              Rx   d 4 2B DD 00 00
 86.499918 1  64              Rx   d 8 D9 35 1C 00 00 00 00 00
 86.549917 1  C8              Rx   d 4 4C A8 0D 00
 86.599917 1  64              Rx   d 8 7E E5 0E 00 00 00 00 00
 86.649917 1  C8              Rx   d 4 77 D7 16 00
 86.699917 1  64              Rx   d 8 FB D0 16 00 00 00 00 00
 86.749917 1  C8              Rx   d 4 39 D2 0D 00
 86.799917 1  64              Rx   d 8 0B E8 11 00 00 00 00 00
 86.849917 1  C8              Rx   d 4 7B F3 08 00
 86.899917 1  64              Rx   d 8 39 31 0C 00 00 00 00 00
 86.949917 1  C8              Rx   d 4 B9 85 04 00
 86.999917 1  64              Rx   d 8 BD AB 02 00 00 00 00 00
 87.049917 1  C8              Rx   d 4 8F 47 06 00
 87.099917 1  64              Rx   d 8 85 B5 03 00 00 00 00 00
 87.149917 1  C8              Rx   d 4 8D D2 0A 00
 87.199917 1  64              Rx   d 8 20 E0 16 00 00 00 00 00
 87.249917 1  C8              Rx   d 4 78 D8 0C 00
 87.299917 1  64              Rx   d 8 A1 DD 1C 00 00 00 00 00
 87.349917 1  C8              Rx   d 4 B2 F5 05 00
 87.399917 1  64              Rx   d 8 E6 BD 1C 00 00 00 00 00
 87.449917 1  C8              Rx   d 4 56 A5 0B 00
 87.499917 1  64              Rx   d 8 26 F7 00 00 00 00 00 00
 87.549917 1  C8              Rx   d 4 41 52 04 00
 87.599916 1  64              Rx   d 8 02 7A 10 00 00 00 00 00
 87.649916 1  C8              Rx   d 4 3B 3C 0A 00
